time,V(n001),I(R2)
0.0,-2.995293e-22,-3.941176e-24
0.0001667222407469,5.916593278031165e-06,7.784991042581543e-08
0.0003334444814938,0.0068293922875197,8.986042069845688e-05
0.0005001667222407,0.0413845754275695,0.000544533797769
0.0006668889629876,0.1066647760338506,0.0014034833877491
0.0008336112037345,0.2064135890494327,0.0027159679069443
0.0010003334444814,0.317535662025502,0.004178100544977
0.0011670556852284,0.4684449902015608,0.0061637495639834
0.0013337779259753,0.6193543183776196,0.0081493985829897
0.0015005001667222,0.786716956100435,0.0103515376148619
0.0016672224074691,0.9936672195215754,0.0130745642877529
0.001833944648216,1.2006174829427156,0.0157975909606439
0.0020006668889629,1.4266887714119267,0.0187722117929443
0.0021673891297099,1.686042123862744,0.0221847575215205
0.0023341113704568,1.945395476313561,0.0255973032500967
0.0025008336112037,2.222763686642044,0.0292468857984848
0.0026675558519506,2.5234191691362087,0.0332028788094885
0.0028342780926975,2.8240746516303736,0.0371588718204921
0.0030010003334444,3.139689342119591,0.0413116976099866
0.0031677225741913,3.469823322779811,0.0456555677533677
0.0033344448149383,3.799957303440032,0.0499994378967488
0.0035011670556852,4.140067963346812,0.0544745782633583
0.0036678892964321,4.487440244773955,0.0590452649189101
0.003834611537179,4.834812526201097,0.063615951574462
0.0040013337779259,5.1857831296986205,0.0682339877271317
0.0041680560186728,5.5386909523061565,0.0728775153029903
0.0043347782594198,5.891598774913692,0.0775210428788489
0.0045015005001667,6.240492435787727,0.0821117438132103
0.0046682227409136,6.587835304663809,0.086682036219378
0.0048349449816605,6.928721057642443,0.0911673763762707
0.0050016672224074,7.2610590055192,0.0955402583891094
0.0051683894631543,7.593396953395956,0.0999131404019481
0.0053351117039013,7.90731584601787,0.1040436513739188
0.0055018339446482,8.214740772862356,0.108088710121383
0.0056685561853951,8.517161212865197,0.1120679180289069
0.005835278426142,8.789378245209312,0.1156496986224381
0.0060020006668889,9.061595277553426,0.1192314792159693
0.0061687229076358,9.324259258657522,0.122687572122804
0.0063354451483827,9.551716667127012,0.1256804588183692
0.0065021673891297,9.779174075596504,0.1286733455139344
0.0066688896298766,9.9913308632023,0.1314648967382808
0.0068356118706235,10.165048929224309,0.1337506463881641
0.0070023341113704,10.338766995246312,0.1360363960380474
0.0071690563521173,10.491096931995443,0.1380407267730138
0.0073357785928642,10.60473737214216,0.1395359921281322
0.0075025008336112,10.718377812288876,0.1410312574832505
0.0076692230743581,10.809959715731855,0.1422362850775068
0.007835945315105,10.87197676141375,0.1430523096190206
0.0080026675558519,10.933993807095645,0.1438683341605345
0.0081693897965988,10.9771940226163,0.1444368102976704
0.0083361120373457,10.981775378540856,0.1444970050472114
0.0085028342780926,10.977933734269897,0.1444465231442297
0.0086695565188396,10.974100439522289,0.1443960547341237
0.0088362787595865,10.97026714477468,0.1443456156483138
0.0090030010003334,10.966433850027071,0.1442952119003559
0.0091697232410803,10.962600555279463,0.144244708152398
0.0093364454818272,10.958771666349572,0.1441943310122001
0.0095031677225741,10.954944506871255,0.1441439643165633
0.0096698899633211,10.951117347392936,0.1440935976209265
0.009836612204068,10.947293618833864,0.1440432715600875
0.0100033344448149,10.943470276620785,0.1439929500750168
0.0101700566855618,10.939646934407708,0.1439426285899461
0.0103367789263087,10.935823875705893,0.1438923531632912
0.0105035011670556,10.932001007581723,0.1438421086973265
0.0106702234078026,10.928178139457556,0.1437918642313619
0.0108369456485495,10.924360174311335,0.1437416354777457
0.0110036678892964,10.92054279518496,0.1436914086021205
0.0111703901300433,10.916725416058584,0.1436411817264953
0.0113371123707902,10.912915226722165,0.1435909598067921
0.0115038346115371,10.90909583938581,0.143540765317642
0.011670556852284,10.905290972832468,0.1434906167324194
0.011837279093031,10.905315497717,0.1434909334481216
0.0120040013337779,10.92614256622295,0.1437649951624657
0.0121707235745248,10.973012801159053,0.1443817218340459
0.0123374458152717,11.042461815637994,0.1452955561288383
0.0125041680560186,11.12859738441072,0.1464289747552704
0.0126708902967655,11.222799706265166,0.147668512865517
0.0128376125375125,11.345232410499907,0.1492794263700184
0.0130043347782594,11.467665114734656,0.15089033987452
0.0131710570190063,11.59998104491851,0.1526313158707988
0.0133377792597532,11.756083852521046,0.154685325340622
0.0135045015005001,11.91218666012358,0.1567393348104453
0.013671223741247,12.076999181150606,0.1589079208593282
0.0138379459819939,12.256975973414695,0.1612759934168474
0.0140046682227409,12.436952765678782,0.1636440659743665
0.0141713904634878,12.621873313062778,0.1660772114531929
0.0143381127042347,12.813186150675314,0.1685944964148468
0.0145048349449816,13.004498988287851,0.1711117813765007
0.0146715571857285,13.196176375306994,0.1736338511593807
0.0148382794264754,13.388207680721909,0.1761605662282542
0.0150050016672224,13.576481778961307,0.1786378617266384
0.0151717239079693,13.759661282472845,0.1810481466313805
0.0153384461487162,13.936075497079871,0.1833694039089457
0.0155051683894631,14.101320873721718,0.1855436851805489
0.01567189063021,14.26656625036356,0.1877179664521521
0.0158386128709569,14.416650607919603,0.1896927538292126
0.0160053351117039,14.553854315822235,0.1914980531956681
0.0161720573524508,14.691058023724873,0.1933033525621236
0.0163387795931977,14.804635937149438,0.1947977994085028
0.0165055018339446,14.903232215909023,0.1960951278513171
0.0166722240746915,15.00182849466861,0.1973924562941313
0.0168389463154384,15.07370608835848,0.1983382169520852
0.0170056685561853,15.133196425137408,0.1991209845412816
0.0171723907969323,15.192686761916333,0.199903752130478
0.0173391130376792,15.227985367907309,0.2003682014279036
0.0175058352784261,15.246035188057764,0.2006057438435155
0.017672557519173,15.241577041706934,0.2005470762505177
0.0178392797599199,15.23625127445451,0.2004770021618979
0.0180060020006668,15.230931401933876,0.2004069923896176
0.0181727242414138,15.225611015221018,0.2003369307436677
0.0183394464821607,15.22029062850816,0.2002669560923355
0.0185061687229076,15.2149702417953,0.2001969814410034
0.0186728909636545,15.209649855082445,0.2001270067896712
0.0188396132044014,15.204339035377888,0.2000570936308162
0.0190063354451483,15.199028827619513,0.1999871844052793
0.0191730576858952,15.19372064452741,0.1999173298940996
0.0193397799266422,15.188413870206713,0.1998475134534024
0.0195065021673891,15.183107095886012,0.1997776970127052
0.019673224408136,15.177800321565314,0.199707880572008
0.0198399466488829,15.172499920128155,0.1996381334678041
0.0200066688896298,15.16720191538325,0.1995684124394314
0.0201733911303767,15.161903910638344,0.1994986914110587
0.0203401133711237,15.15660590589344,0.199428970382686
0.0205068356118706,15.151307901148533,0.1993592493543133
0.0206735578526175,15.146013715569737,0.1992896202085878
0.0208402800933644,15.140721284759463,0.1992200332796115
0.0210070023341113,15.135428853949197,0.1991504463506352
0.0211737245748582,15.130141589044554,0.199080885251187
0.0213404468156052,15.124855987177265,0.1990113324669256
0.0215071690563521,15.119570385309975,0.1989417796826642
0.021673891297099,15.11428760980997,0.1988722551620756
0.0218406135378459,15.109005422414173,0.1988027365225291
0.0220073357785928,15.103723235018371,0.1987332178829826
0.0221740580193397,15.098449968411009,0.1986637442559073
0.0223407802600866,15.09317232986353,0.1985943990771517
0.0225075025008336,15.089831624618808,0.1985503802395102
0.0226742247415805,15.100321701099851,0.1986884848583413
0.0228409469823274,15.129977273440373,0.1990786625139699
0.0230076692230743,15.181471617477856,0.1997562192940384
0.0231743914638212,15.245639324341273,0.2006005285476299
0.0233411137045681,15.3245306881292,0.2016385620254559
0.0235078359453151,15.403422051917133,0.2026765955032818
0.023674558186062,15.49428761521358,0.2038721905798735
0.0238412804268089,15.596930042689408,0.2052227506332247
0.0240080026675558,15.699572470165233,0.2065733106865758
0.0241747249083027,15.811606807781247,0.208047458846165
0.0243414471490496,15.930570408981648,0.2096127891562683
0.0245081693897965,16.04953401018205,0.2111781194663717
0.0246748916305435,16.17182269398965,0.2127871406141784
0.0248416138712904,16.295927653157023,0.2144200272117626
0.0250083361120373,16.417127279283765,0.2160147620677994
0.0251750583527842,16.536683804536793,0.2175879203407065
0.0253417805935311,16.6496871412798,0.2190748440848612
0.025508502834278,16.755285500768974,0.2204643244664556
0.025675225075025,16.86088386025815,0.22185380484805
0.0258419473157719,16.950269443436994,0.2230299107962186
0.0260086695565188,17.03196067384713,0.2241047522767121
0.0261753917972657,17.113651904257267,0.2251795937572056
0.0263421140380126,17.172939433768214,0.2259596941446587
0.0265088362787595,17.22473696627905,0.2266412567988768
0.0266755585195065,17.27653449878989,0.2273228194530949
0.0268422807602534,17.30621331287306,0.2277133307662552
0.0270090030010003,17.331060944337047,0.2280402704857536
0.0271757252417472,17.332884159329954,0.2280642863830167
0.0273424474824941,17.326849339346836,0.2279848417418354
0.027509169723241,17.320796522475444,0.227905244272012
0.0276758919639879,17.314742204621467,0.2278255534267217
0.0278426142047349,17.308695410071042,0.2277459688777639
0.0280093364454818,17.302650520252644,0.2276664291512568
0.0281760586862287,17.29660782244649,0.2275869113448721
0.0283427809269756,17.290565184524336,0.2275073950502438
0.0285095031677225,17.284524984457647,0.2274279402986599
0.0286762254084694,17.278484784390958,0.227348485547076
0.0288429476492164,17.27244523487902,0.2272690373010397
0.0290096698899633,17.26641186375531,0.2271896508388856
0.0291763921307102,17.260378492631602,0.2271102643767316
0.0293431143714571,17.25434739627528,0.2270309063491698
0.029509836612204,17.248327683037534,0.2269516906105903
0.0296765588529509,17.242307969799786,0.2268724748720108
0.0298432810936978,17.23628825656204,0.2267932591334313
0.0300100033344448,17.230268543324296,0.2267140433948517
0.0301767255751917,17.224248830086548,0.2266348276562722
0.0303434478159386,17.218229116848804,0.2265556119176927
0.0305101700566855,17.212209403611055,0.2264763961791132
0.0306768922974324,17.20618969037331,0.2263971804405336
0.0308436145381793,17.200173873941345,0.2263180296487171
0.0310103367789263,17.194164404118073,0.2262389846337121
0.0311770590196732,17.1881549342948,0.2261599396187071
0.0313437812604201,17.18214854917099,0.2260809254506968
0.031510503501167,17.176145908290696,0.2260019487251216
0.0316772257419139,17.170143267410403,0.2259229719995464
0.0318439479826608,17.164144198058516,0.2258440309892553
0.0320106702234078,17.1581483861212,0.2257651225531099
0.0321773924641547,17.15215257418389,0.2256862141169645
0.0323441147049016,17.1461587348647,0.2256073046618069
0.0325108369456485,17.14016094450984,0.2255284371067409
0.0326775591863954,17.13417769038484,0.225449669686301
0.0328442814271423,17.128484210706837,0.2253747921076215
0.0330110036678892,17.13046181025958,0.2254007755790247
0.0331777259086362,17.148231836802438,0.2256345729723694
0.0333444481493831,17.18330455133675,0.2260961104855239
0.03351117039013,17.230350284203073,0.2267151340017647
0.0336778926308769,17.286992308937094,0.2274603794680957
0.0338446148716238,17.34594111768611,0.2282359908483473
0.0340113371123707,17.42030147780615,0.229214475943379
0.0341780593531177,17.49466183792619,0.2301929610384107
0.0343447815938646,17.571283954272385,0.231201190814356
0.0345115038346115,17.656869970798887,0.2323273061287698
0.0346782260753584,17.742455987325386,0.2334534214431836
0.0348449483161053,17.828920295422442,0.234591090459709
0.0350116705568522,17.915864092947505,0.235735067037644
0.0351783927975992,18.00280789047257,0.2368790436155791
0.0353451150383461,18.081328767662605,0.2379122030478757
0.035511837279093,18.15845352381384,0.2389269942489258
0.0356785595198399,18.229642474100245,0.239863692130828
0.0358452817605868,18.28680072685116,0.2406157977660397
0.0360120040013337,18.34395897960208,0.2413679034012514
0.0361787262420806,18.39273438679127,0.2420096892283351
0.0363454484828276,18.42714884494399,0.2424624822926899
0.0365121707235745,18.461563303096707,0.2429152753570447
0.0366788929643214,18.48697271255881,0.2432496458766947
0.0368456152050683,18.49432826599308,0.2433464229540753
0.0370123374458152,18.488359482535767,0.2432679159061533
0.0371790596865621,18.48190327196689,0.2431829344277678
0.0373457819273091,18.47544799626626,0.2430979694198766
0.037512504168056,18.468992564911527,0.2430129919496097
0.0376792264088029,18.462537133556797,0.24292815613568
0.0378459486495498,18.45609014976356,0.2428432370090757
0.0380126708902967,18.4496390003366,0.2427583868337015
0.0381793931310436,18.44319398962746,0.2426735865526285
0.0383461153717905,18.436746932358187,0.2425888389149437
0.0385128376125375,18.43030418346394,0.2425041016660869
0.0386795598532844,18.42386608499091,0.242419359798501
0.0388462820940313,18.41743203339021,0.2423346804394406
0.0390130043347782,18.410999001835545,0.2422500168361463
0.0391797265755251,18.40456958531188,0.2421654070830226
0.039346448816272,18.39814354996676,0.2420808476965605
0.039513171057019,18.391717514621647,0.2419962883100983
0.0396798932977659,18.38529147927653,0.2419117289236362
0.0398466155385128,18.378865443931417,0.241827169537174
0.0400133377792597,18.372439408586303,0.2417426101507119
0.0401800600200066,18.366020126631344,0.2416581520651021
0.0403467822607535,18.359604334700705,0.241573746329857
0.0405135045015005,18.35318854277006,0.2414893405946119
0.0406802267422474,18.346777739928463,0.2414049847502573
0.0408469489829943,18.3403687769408,0.241320647304442
0.0410136712237412,18.333959813953136,0.2412363098586268
0.0411803934644881,18.327556326883467,0.2411520271719914
0.041347115705235,18.321154192838783,0.2410677580156059
0.0415138379459819,18.314752058794102,0.2409834888592205
0.0416805601867289,18.308352906122888,0.2408993389577737
0.0418472824274758,18.301954186549697,0.2408152063802479
0.0420140046682227,18.29555546697651,0.240731073802722
0.0421807269089696,18.28916642176713,0.2406469734730756
0.0423474491497165,18.28277794560841,0.2405628750402646
0.0425141713904634,18.276389469213765,0.2404787775245867
0.0426808936312104,18.270000978062484,0.2403947373733853
0.0428476158719573,18.263615509957337,0.2403107093706151
0.0430143381127042,18.257246793102244,0.2402268683103291
0.0431810603534511,18.25352982771877,0.240178057760344
0.043347782594198,18.261269917281293,0.24027987350934
0.0435145048349449,18.28410751975548,0.2405803998026361
0.0436812270756918,18.31759336959842,0.2410209899723405
0.0438479493164388,18.35968963797991,0.2415748361769732
0.0440146715571857,18.41075462182303,0.2422467561793179
0.0441813937979326,18.46736314466398,0.2429916572796847
0.0443481160386795,18.523971667504927,0.2437365583800515
0.0445148382794264,18.586919224454498,0.244564781255979
0.0446815605201733,18.652724098055057,0.2454305613831564
0.0448482827609203,18.71916176471601,0.2463047132742135
0.0450150050016672,18.78631690601742,0.2471883572546369
0.0451817272424141,18.85347204731883,0.2480720012350602
0.045348449483161,18.91322442030081,0.2488582424151458
0.0455151717239079,18.97116948665722,0.2496207037443966
0.0456818939646548,19.025414092207832,0.2503344682195245
0.0458486162054017,19.06455759337489,0.250849507099151
0.0460153384461487,19.10370109454194,0.2513645459787776
0.0461820606868956,19.13756251116251,0.251810075555178
0.0463487829276425,19.1570045118294,0.2520658536145311
0.0465155051683894,19.17644651249629,0.2523216316738843
0.0466822274091363,19.19041872311858,0.252505502672425
0.0468489496498832,19.184475886083494,0.2524273265190854
0.0470156718906302,19.17777,0.2523391
0.0471823941313771,19.171070194926838,0.2522509446700899
0.047349116372124,19.16437421933268,0.2521628227310591
0.0475158386128709,19.1576774789703,0.252074693144346
0.0476825608536178,19.15098762952811,0.2519866324668349
0.0478492830943647,19.144294763013765,0.2518985873347227
0.0480160053351117,19.13760103972353,0.251810618549491
0.0481827275758586,19.13091653228596,0.2517226211542135
0.0483494498166055,19.124232862269704,0.2516346450075898
0.0485161720573524,19.11755082349081,0.2515467223321491
0.0486828942980993,19.11087482703369,0.2514588600799261
0.0488496165388462,19.10419883057657,0.2513709978277032
0.0490163387795931,19.09752283411946,0.2512831820946283
0.0491830610203401,19.09084916313629,0.2511953965779968
0.049349783261087,19.084180840238325,0.2511076110613652
0.0495165055018339,19.077512517340352,0.2510199022706562
0.0496832277425808,19.070849284014205,0.2509321845599684
0.0498499499833277,19.06418826639577,0.2508444864780384
0.0500166722240746,19.057527248777347,0.2507568376779008
0.0501833944648216,19.05086623115892,0.250669257989991
0.0503501167055685,19.044209404563947,0.2505816819878603
0.0505168389463154,19.0375556667462,0.2504941206939707
0.0506835611870623,19.030901928928444,0.2504066174898466
0.0508502834278092,19.02425422153617,0.2503191142857226
0.0510170056685561,19.01760776351909,0.2502316441838602
0.051183727909303,19.010961659529745,0.2501442201275424
0.05135045015005,19.004319569536467,0.2500568680657858
0.0515171723907969,18.99767761789098,0.249969514389042
0.0516838946315438,18.99103889982237,0.249882122965504
0.0518506168722907,18.98440392434196,0.2497948160601772
0.0520173391130376,18.977771621525488,0.2497075682692898
0.0521840613537845,18.971144311731884,0.2496203226423223
0.0523507835945315,18.96451700501945,0.2495330600065058
0.0525175058352784,18.9578915575469,0.2494459120478499
0.0526842280760253,18.951268774977557,0.2493588222875391
0.0528509503167722,18.944646941923647,0.249271636103791
0.0530176725575191,18.9380273899737,0.2491845543980882
0.053184394798266,18.931426055640504,0.2490977507364184
0.053351117039013,18.9276706224668,0.2490483199178223
0.0535178392797599,18.934263525530486,0.2491350596829162
0.0536845615205068,18.953897659139635,0.249393379827552
0.0538512837612537,18.984073746297245,0.2497904372545318
0.0540180060020006,19.020244097291485,0.2502663891072387
0.0541847282427475,19.065115005222875,0.2508568172512215
0.0543514504834945,19.11310540202181,0.251488289608674
0.0545181727242414,19.161095798820742,0.2521197619661265
0.0546848949649883,19.214686931126963,0.2528249013265207
0.0548516172057352,19.269614306255303,0.2535476164149207
0.0550183394464821,19.32425919522832,0.2542666002770529
0.055185061687229,19.378859097321325,0.2549849899287248
0.0553517839279759,19.42764445662374,0.2556268936050516
0.0555185061687229,19.472396861187377,0.2562157467685819
0.0556852284094698,19.517149265751016,0.2568045999321122
0.0558519506502167,19.549151546034388,0.2572256654437761
0.0560186728909636,19.578676481012717,0.2576141298652499
0.0561853951317105,19.60820141599104,0.2580025942867238
0.0563521173724574,19.623269228925427,0.2582008762744755
0.0565188396132044,19.631212932959453,0.2583054447450928
0.0566855618539513,19.625475529728394,0.2582299409924148
0.0568522840946982,19.618621390665474,0.2581398173833184
0.0570190063354451,19.61176763203568,0.2580495848107944
0.057185728576192,19.604914345019896,0.2579594419325381
0.0573524508169389,19.598068093387013,0.2578692628820845
0.0575191730576858,19.59121593472705,0.2577792158866454
0.0576858952984328,19.584372177328827,0.2576891947455599
0.0578526175391797,19.57753425818443,0.2575991850107264
0.0580193397799266,19.57069686154136,0.2575091762967086
0.0581860620206735,19.563860225417358,0.2574192010676788
0.0583527842614204,19.55702445349338,0.2573292638886191
0.0585195065021673,19.5501886815694,0.2572393267095594
0.0586862287429143,19.54335843475585,0.2571494631986387
0.0588529509836612,19.536532906246347,0.2570596625984387
0.0590196732244081,19.529707377736845,0.2569698619982386
