time,I(L1),I(L2)
0.0,-2.220446e-13,0.0
0.0001667222407469,1.4616344800574697,0.9995705994951414
0.0003334444814938,2.500231620436155,0.9998928621786692
0.0005001667222407,3.5148890585347505,1.000211336625764
0.0006668889629876,4.486772717874051,1.000524666421286
0.0008336112037345,5.448460995748206,1.0008367918525414
0.0010003334444814,6.343173226165441,1.0011393899470753
0.0011670556852284,7.225350079783315,1.001440204885388
0.0013337779259753,8.107526933401187,1.001741019823701
0.0015005001667222,8.887294926628224,1.0020237412135498
0.0016672224074691,9.657382193050363,1.0023047522172177
0.001833944648216,10.427469459472505,1.0025857632208854
0.0020006668889629,11.063194105896503,1.0028408791877483
0.0021673891297099,11.696861968517378,1.0030955987609391
0.0023341113704568,12.32219602325702,1.0033484565668238
0.0025008336112037,12.80760753376052,1.003570055766557
0.0026675558519506,13.29301904426402,1.0037916549662902
0.0028342780926975,13.758494606774942,1.0040084217894
0.0030010003334444,14.087547224314122,1.0041921203555888
0.0031677225741913,14.4165998418533,1.0043758189217775
0.0033344448149383,14.713689475966188,1.0045511008178776
0.0035011670556852,14.881954631017871,1.004692459937584
0.0036678892964321,15.050219786069556,1.0048338190572903
0.003834611537179,15.174857613209213,1.0049629132070923
0.0040013337779259,15.18158753651698,1.005058859855975
0.0041680560186728,15.18831745982475,1.005154806504858
0.0043347782594198,15.141986108479202,1.0052347845343017
0.0045015005001667,14.993279046125084,1.0052839529237647
0.0046682227409136,14.844571983770964,1.005333121313228
0.0048349449816605,14.63592062258317,1.0053629238865027
0.0050016672224074,14.341949498155792,1.0053651627567353
0.0051683894631543,14.047978373728416,1.0053674016269676
0.0053351117039013,13.65421376949736,1.0053356071791708
0.0055018339446482,13.224049391394184,1.0052913990437984
0.0056685561853951,12.777557689330203,1.0052411999114963
0.005835278426142,12.223139710003762,1.0051513993112962
0.0060020006668889,11.66872173067732,1.0050615987110962
0.0061687229076358,11.091612778091257,1.0049627317706962
0.0063354451483827,10.425246912135936,1.0048282015939705
0.0065021673891297,9.758881046180615,1.004693671417245
0.0066688896298766,9.06595666656658,1.0045473539214975
0.0068356118706235,8.302655320784657,1.0043698014039917
0.0070023341113704,7.53935397500273,1.0041922488864858
0.0071690563521173,6.75045081820769,1.004001374618393
0.0073357785928642,5.912999443749537,1.0037852385730446
0.0075025008336112,5.075548069291384,1.0035691025276965
0.0076692230743581,4.221422003771663,1.0033400232752288
0.007835945315105,3.343941072794671,1.0030928155393166
0.0080026675558519,2.466460141817683,1.0028456078034047
0.0081693897965988,1.5931846411449886,1.0025879130535955
0.0083361120373457,0.7243240707473839,1.0023192088631825
0.0085028342780926,0.014720534132551,1.0020415474919753
0.0086695565188396,4.126801219453495e-08,1.00175
0.0088362787595865,-1.7662545614008312e-08,1.0014517498867614
0.0090030010003334,-1.6839254346950334e-08,1.0011471234506355
0.0091697232410803,-1.617303602321562e-08,1.0008385137473148
0.0093364454818272,-1.5687653865796044e-08,1.000524611691304
0.0095031677225741,-1.5361636756194158e-08,1.0002065635968105
0.0096698899633211,-1.5208795706784536e-08,0.9998864564102964
0.009836612204068,-1.5137755436363374e-08,0.999434702606276
0.0100033344448149,-1.5134947317857725e-08,0.1306913458980441
0.0101700566855618,-1.5198498944766783e-08,-0.9995772753641812
0.0103367789263087,-1.5337080836333554e-08,-0.9998994306191186
0.0105035011670556,-1.5574669969741776e-08,-1.0002190309107664
0.0106702234078026,-1.597703643234421e-08,-1.000535519503133
0.0108369456485495,-1.648164617055431e-08,-1.000850023896108
0.0110036678892964,-1.7418204716129233e-08,-1.0011586153426713
0.0111703901300433,-1.913214410489317e-08,-1.0014632598745643
0.0113371123707902,-1.2077352316232047e-05,-1.0017615011957994
0.0115038346115371,-0.2100783191554454,-1.0020532169727767
0.011670556852284,-1.0376839765047283,-1.0023353039120726
0.011837279093031,-1.903966601654568,-1.0026069973657086
0.0120040013337779,-2.721649266174192,-1.0028653601170123
0.0121707235745248,-3.5113472751528527,-1.0031168495959406
0.0123374458152717,-4.223063449136851,-1.003350932153832
0.0125041680560186,-4.900270262074495,-1.003577311613652
0.0126708902967655,-5.577477075012144,-1.003803691073472
0.0128376125375125,-6.141429193587172,-1.0040039663804576
0.0130043347782594,-6.670496770779572,-1.0041962011253724
0.0131710570190063,-7.199564347971967,-1.0043884358702877
0.0133377792597532,-7.587534586719093,-1.0045458538921923
0.0135045015005001,-7.947785913161238,-1.0046964320849232
0.013671223741247,-8.308037239603383,-1.004847010277654
0.0138379459819939,-8.513278925899453,-1.0049567048465964
0.0140046682227409,-8.70264414897381,-1.0050622120156527
0.0141713904634878,-8.89200937204817,-1.0051677191847088
0.0143381127042347,-8.93164226349183,-1.0052318021859112
0.0145048349449816,-8.967966776996333,-1.0052949699084854
0.0146715571857285,-8.997588961211243,-1.0053561317605406
0.0148382794264754,-8.898980186157734,-1.0053789167006737
0.0150050016672224,-8.768402261628454,-1.005391738501774
0.0151717239079693,-8.542038129544808,-1.0053747086703195
0.0153384461487162,-8.278522219707847,-1.0053451891776035
0.0155051683894631,-7.933257626368362,-1.0052881874639223
0.01567189063021,-7.587993033028879,-1.005231185750241
0.0158386128709569,-7.189967309598094,-1.0051552967182986
0.0160053351117039,-6.723511579021242,-1.005054911256478
0.0161720573524508,-6.25705584844438,-1.0049545257946573
0.0163387795931977,-5.731811186404717,-1.004831478372298
0.0165055018339446,-5.149319422483407,-1.004686363333952
0.0166722240746915,-4.566827658562109,-1.004541248295606
0.0168389463154384,-3.933923694246415,-1.0043716639017308
0.0170056685561853,-3.2642034514988283,-1.004184209416903
0.0171723907969323,-2.5944832087512424,-1.0039967549320743
0.0173391130376792,-1.9034901945272236,-1.0037895713758525
0.0175058352784261,-1.201003385857663,-1.0035717280947587
0.017672557519173,-0.4985165771881026,-1.003353884813665
0.0178392797599199,-0.0027735310503048,-1.0031176423927777
0.0180060020006668,-5.6235409350455556e-08,-1.002861
0.0181727242414138,1.601597263376677e-08,-1.0025953864441404
0.0183394464821607,1.4655728702492082e-08,-1.0023182833356985
0.0185061687229076,1.4118095261069726e-08,-1.0020345482728468
0.0186728909636545,1.3767485848499786e-08,-1.0017433170774357
0.0188396132044014,1.3578076108183728e-08,-1.001444312840686
0.0190063354451483,1.3517492876003472e-08,-1.0011371606700363
0.0191730576858952,1.3433446416285653e-08,-1.0008268179184767
0.0193397799266422,1.3380233673314232e-08,-1.0005125104637276
0.0195065021673891,1.3345633170187372e-08,-1.0001958097844674
0.019673224408136,1.331110951382176e-08,-0.9998789555275268
0.0198399466488829,1.3307579093655332e-08,-0.9923168755182008
0.0200066688896298,1.3320364081883593e-08,-0.0926123960975361
0.0201733911303767,1.3346664373041452e-08,0.9995838553366247
0.0203401133711237,1.3386832726693506e-08,0.9999059448366472
0.0205068356118706,1.3447740728413134e-08,1.000225173437944
0.0206735578526175,1.3529635090807724e-08,1.0005424487051984
0.0208402800933644,1.365341301022414e-08,1.000855101894358
0.0210070023341113,1.3836840937974877e-08,1.001162667886493
0.0211737245748582,1.4079218721148406e-08,1.0014653891028429
0.0213404468156052,1.4523715345777628e-08,1.0017622463945337
0.0215071690563521,2.146286955095704e-08,1.0020523421706458
0.021673891297099,1.1354326121875123e-07,1.0023337631807614
0.0218406135378459,3.3804631317726764e-07,1.0026149190806877
0.0220073357785928,0.0001761172496292,1.0028824924758095
0.0221740580193397,0.2746688702858337,1.003137527574912
0.0223407802600866,1.0007886759395608,1.0033813337372528
0.0225075025008336,1.7283954642770434,1.0036095819354725
0.0226742247415805,2.4018633783420404,1.0038226241166277
0.0228409469823274,3.033301295712458,1.0040252577624231
0.0230076692230743,3.606148129537248,1.0042132639135464
0.0231743914638212,4.111136512331516,1.0043843289352203
0.0233411137045681,4.616124895125783,1.004555393956894
0.0235078359453151,5.036342853275633,1.0047049177420988
0.023674558186062,5.382776496490032,1.0048356920001849
0.0238412804268089,5.729210139704438,1.004966466258271
0.0240080026675558,5.976816169526417,1.0050707580461384
0.0241747249083027,6.160150070159959,1.005157827069146
0.0243414471490496,6.343483970793505,1.0052448960921538
0.0245081693897965,6.4208248501244,1.005302349876105
0.0246748916305435,6.447647417146956,1.005345688467589
0.0248416138712904,6.4103940266489845,1.005369671307084
0.0250083361120373,6.291268565855865,1.005368922631844
0.0251750583527842,6.172143105062745,1.005368173956604
0.0253417805935311,5.948323861681022,1.0053338105535812
0.025508502834278,5.6928157643855375,1.0052892725998666
0.025675225075025,5.415601879444382,1.0052373510751658
0.0258419473157719,5.027033316590095,1.0051475504749656
0.0260086695565188,4.638464753735808,1.0050577498747657
0.0261753917972657,4.222342632225654,1.0049573838914576
0.0263421140380126,3.716232936993908,1.004822512267583
0.0265088362787595,3.210123241762161,1.0046876406437084
0.0266755585195065,2.6787711054147927,1.0045413913569523
0.0268422807602534,2.09009027046982,1.0043693019938311
0.0270090030010003,1.5014094355248349,1.0041972126307102
0.0271757252417472,0.903181049847473,1.004015409016721
0.0273424474824941,0.2966512047345699,1.0038151823969823
0.027509169723241,0.0005877447120504,1.003593522858762
0.0276758919639879,1.5837347366008204e-08,1.0033592450942876
0.0278426142047349,-1.4088569931630452e-08,1.0031125174280129
0.0280093364454818,-1.3509674418571606e-08,1.0028548381578626
0.0281760586862287,-1.3183612089382872e-08,1.0025857902994109
0.0283427809269756,-1.2989885716867926e-08,1.0023058888693783
0.0285095031677225,-1.2860546315181824e-08,1.002019778041027
0.0286762254084694,-1.2782706935946088e-08,1.0017248296704482
0.0288429476492164,-1.2736929498583036e-08,1.001424379384497
0.0290096698899633,-1.2691152061219988e-08,1.001123929098546
0.0291763921307102,-1.2679198394471844e-08,1.0008141393537942
0.0293431143714571,-1.2674312285768945e-08,1.0005023981067118
0.029509836612204,-1.2669426177066045e-08,1.0001906568596295
0.0296765588529509,-1.2676974173677154e-08,0.9998730039528824
0.0298432810936978,-1.268962068256195e-08,0.9971644993664572
0.0300100033344448,-1.270512115302797e-08,0.0543878639293842
0.0301767255751917,-1.2722999645936222e-08,-0.999590497478102
0.0303434478159386,-1.2744011014568148e-08,-0.999912302949754
0.0305101700566855,-1.2770277575462429e-08,-1.00023177794013
0.0306768922974324,-1.2794070773972284e-08,-1.0005501112438984
0.0308436145381793,-1.2835867879579104e-08,-1.0008629665871671
0.0310103367789263,-1.291129080676334e-08,-1.0011711871978106
0.0311770590196732,-1.3016311241223736e-08,-1.0014733859351526
0.0313437812604201,-1.3150945315964489e-08,-1.001770369449403
0.031510503501167,-1.3322064698970455e-08,-1.002061337682555
0.0316772257419139,-1.3635429785588614e-08,-1.00234270077563
0.0318439479826608,-1.414923462338092e-08,-1.002615872200527
0.0320106702234078,-1.491554455370058e-08,-1.0028852350879134
0.0321773924641547,-3.667117929361749e-08,-1.0031429537608398
0.0323441147049016,-0.0004186890291306,-1.0033877867514958
0.0325108369456485,-0.2698471795905782,-1.0036212888512626
0.0326775591863954,-0.9238698283011828,-1.003840903998722
0.0328442814271423,-1.5734389986879744,-1.0040448818283163
0.0330110036678892,-2.1602931786449364,-1.0042308123038413
0.0331777259086362,-2.72084996005574,-1.0044096701530894
0.0333444481493831,-3.166288594267128,-1.0045585411100748
0.03351117039013,-3.611727228478534,-1.0047074120670605
0.0336778926308769,-4.038202592735242,-1.004851334866162
0.0338446148716238,-4.329231314309102,-1.0049599150595598
0.0340113371123707,-4.6202600358829615,-1.0050684952529576
0.0341780593531177,-4.880776282933115,-1.0051687247977996
0.0343447815938646,-5.014605468661692,-1.005234282650417
0.0345115038346115,-5.148434654390269,-1.005299840503035
0.0346782260753584,-5.244937184693759,-1.0053546346432969
0.0348449483161053,-5.238117712354922,-1.005379634302811
0.0350116705568522,-5.1747045009006,-1.0053876910447923
0.0351783927975992,-5.034837330513911,-1.0053728591573687
0.0353451150383461,-4.845159524083634,-1.0053416411527991
0.035511837279093,-4.581599211782005,-1.0052861181504944
0.0356785595198399,-4.318038899480375,-1.0052305951481897
0.0358452817605868,-3.985164858554925,-1.005150843292313
0.0360120040013337,-3.5971695854638925,-1.0050518236190886
0.0361787262420806,-3.20917431237286,-1.0049528039458642
0.0363454484828276,-2.754431217988958,-1.004826323537805
0.0365121707235745,-2.2602032006498423,-1.0046835986295022
0.0366788929643214,-1.7659751833107262,-1.0045408737211994
0.0368456152050683,-1.2370354735017164,-1.0043752970864714
0.0370123374458152,-0.6931913898090387,-1.0041999084647646
0.0371790596865621,-0.1642280234317527,-1.004020722554345
0.0373457819273091,-8.983562437621694e-05,-1.0038118744032545
0.037512504168056,6.2289992681598525e-09,-1.003588898587348
0.0376792264088029,1.3065033449670252e-08,-1.0033533428070838
0.0378459486495498,1.2969904553323514e-08,-1.00310784383923
0.0380126708902967,1.2790607840929753e-08,-1.002850453878806
0.0381793931310436,1.2534607812762676e-08,-1.0025844625557063
0.0383461153717905,1.2365746149905669e-08,-1.0023064456246704
0.0385128376125375,1.232123805152277e-08,-1.0020230078279226
0.0386795598532844,1.2309498317635216e-08,-1.0017298053562016
0.0388462820940313,1.2307552735136051e-08,-1.0014317189258737
0.0390130043347782,1.2317075515685986e-08,-1.001127649700846
0.0391797265755251,1.2334391589182756e-08,-1.0008165861150975
0.039346448816272,1.2352687443049296e-08,-1.0005034831942616
0.039513171057019,1.237226284443788e-08,-1.000186253072499
0.0396798932977659,1.2391458601092906e-08,-0.9998663165793208
0.0398466155385128,1.2409475526551497e-08,-0.9985585867221624
0.0400133377792597,1.2425584973491993e-08,-0.0182854774348307
0.0401800600200066,1.2440124284108424e-08,0.9995970564433004
0.0403467822607535,1.2453737113708584e-08,0.9999185409562548
0.0405135045015005,1.2467032751059324e-08,1.0002390059122723
0.0406802267422474,1.2483829171305862e-08,1.00055523590069
0.0408469489829943,1.2504903707800733e-08,1.000868798414739
0.0410136712237412,1.251471963053244e-08,1.0011780714839065
0.0411803934644881,1.2537590968469071e-08,1.001482537976483
0.041347115705235,1.2615989074717645e-08,1.0017793516833706
0.0415138379459819,1.2749913949278152e-08,1.0020687945391216
0.0416805601867289,1.2939365592150617e-08,1.0023504227182376
0.0418472824274758,1.3184344003335012e-08,1.002624841937163
0.0420140046682227,1.3486116564884062e-08,1.0028922351596767
0.0421807269089696,1.422313233643496e-08,1.0031461103780763
0.0423474491497165,2.8192418160188733e-08,1.0033920827595997
0.0425141713904634,0.0002589387278272,1.0036255790468984
0.0426808936312104,0.2176784102708103,1.0038468852058469
0.0428476158719573,0.8148100951887094,1.004053525158498
0.0430143381127042,1.417014259814421,1.0042435002330892
0.0431810603534511,1.966140382146656,1.0044172562087397
0.043347782594198,2.472467248264262,1.0045786211415848
0.0435145048349449,2.8915826841629637,1.0047170976389053
0.0436812270756918,3.27224333104526,1.004845481766948
0.0438479493164388,3.652903977927556,1.0049738658949905
0.0440146715571857,3.920906601723329,1.0050722001489674
0.0441813937979326,4.154356066211493,1.0051613178548693
0.0443481160386795,4.387805530699657,1.0052504355607712
0.0445148382794264,4.487935906681074,1.005302251337104
0.0446815605201733,4.562021578664295,1.0053467799520477
0.0448482827609203,4.558091678265742,1.005368
0.0450150050016672,4.4831366398731145,1.005368
0.0451817272424141,4.408181601480486,1.005368
0.045348449483161,4.2183847352570005,1.0053317786557303
0.0455151717239079,4.004097991807269,1.0052878331547586
0.0456818939646548,3.7589697804608746,1.0052334144586452
0.0458486162054017,3.410654422008069,1.005143955305594
0.0460153384461487,3.0623390635552497,1.0050544961525432
0.0461820606868956,2.68332046302784,1.0049514525870225
0.0463487829276425,2.233136396338941,1.004816922410297
0.0465155051683894,1.782952329650043,1.0046823922335713
0.0466822274091363,1.31826316639864,1.0045353911978885
0.0468489496498832,0.82915901082678,1.0043673992005562
0.0470156718906302,0.3400548552549201,1.0041994072032236
0.0471823941313771,0.0011568482648108,1.0040187021667533
0.047349116372124,1.6128075691384258e-07,1.003808
0.0475158386128709,-1.2352437418370524e-08,1.0035842462575488
0.0476825608536178,-1.2694881381158696e-08,1.0033483031824562
0.0478492830943647,-1.2766043143910253e-08,1.0031031133843684
0.0480160053351117,-1.2525849772487188e-08,1.0028454445950623
0.0481827275758586,-1.2119767668143568e-08,1.0025772821545376
0.0483494498166055,-1.2092255677762552e-08,1.002299656851653
0.0485161720573524,-1.2089927031890512e-08,1.0020125454966184
0.0486828942980993,-1.2099413458977414e-08,1.001720983644622
0.0488496165388462,-1.2117402675113384e-08,1.0014226204709444
0.0490163387795931,-1.214187425759618e-08,1.0011187894479578
0.0491830610203401,-1.2168669832044205e-08,1.000806704845718
0.049349783261087,-1.2195465406492228e-08,1.000494620243478
0.0495165055018339,-1.2219809748099372e-08,1.0001762067474744
0.0496832277425808,-1.2243989646471912e-08,0.999857368671747
0.0498499499833277,-1.226552710066254e-08,0.9813215678116282
0.0500166722240746,-1.2281834353229516e-08,-0.0199966732966509
0.0501833944648216,-1.2294714892774765e-08,-0.9996034755091356
0.0503501167055685,-1.2304781808704961e-08,-0.9999250722885858
0.0505168389463154,-1.2311098671791288e-08,-1.0002450722656908
0.0506835611870623,-1.2318271605904556e-08,-1.0005626853143712
0.0508502834278092,-1.2331110544393634e-08,-1.000874810815525
0.0510170056685561,-1.2348746771079642e-08,-1.0011825562614929
0.051183727909303,-1.2371803797814663e-08,-1.001486766326704
0.05135045015005,-1.2415956240168853e-08,-1.0017824798431445
0.0515171723907969,-1.24823597049955e-08,-1.0020720212900422
0.0516838946315438,-1.2572921779634876e-08,-1.002356585057866
0.0518506168722907,-1.2738907852480722e-08,-1.0026301990388935
0.0520173391130376,-1.3018974343341312e-08,-1.0028940915673612
0.0521840613537845,-1.3491374315194702e-08,-1.0031486689143574
0.0523507835945315,-1.4713279606432076e-08,-1.0033966479987677
0.0525175058352784,-7.956345311429777e-07,-1.0036299411921108
0.0526842280760253,-0.011233053174161,-1.0038510597335943
0.0528509503167722,-0.420757792897287,-1.0040590453914675
0.0530176725575191,-1.01200537760344,-1.0042508611342456
0.053184394798266,-1.5665429131222377,-1.0044254838062845
0.053351117039013,-2.075549409978424,-1.0045868903850046
0.0535178392797599,-2.4854658693740634,-1.0047212761689768
0.0536845615205068,-2.880472864693438,-1.0048515963013565
0.0538512837612537,-3.2722846101777745,-1.0049810554947494
0.0540180060020006,-3.524512643522224,-1.0050729047778435
0.0541847282427475,-3.776740676866673,-1.005164754060938
0.0543514504834945,-4.013865995148604,-1.0052523753909015
0.0545181727242414,-4.104857473725386,-1.005299087055119
0.0546848949649883,-4.195848952302164,-1.0053457987193366
0.0548516172057352,-4.190705954804995,-1.0053643761075677
0.0550183394464821,-4.1295272198748565,-1.005366554333225
0.055185061687229,-4.068348484944718,-1.0053687325588825
0.0553517839279759,-3.8822500027155584,-1.0053311629051311
0.0555185061687229,-3.678667248395145,-1.0052880299777287
0.0556852284094698,-3.4341775188589034,-1.0052310314884538
0.0558519506502167,-3.095935192750199,-1.0051422552297011
0.0560186728909636,-2.757692866641508,-1.0050534789709482
0.0561853951317105,-2.380588507536864,-1.004949206666717
0.0563521173724574,-1.9387333611547335,-1.004819115302929
0.0565188396132044,-1.496878214772604,-1.004689023939141
0.0566855618539513,-1.031960738471144,-1.0045452601791427
0.0568522840946982,-0.538437897687684,-1.0043845378603904
