time,V(n001),V(n005)
0.0,-2.299191,-2.299191
0.0001667222407469,-2.296075612356721,-1.672214815726062
0.0003334444814938,-2.2676837747621077,-0.4181697627271136
0.0005001667222407,-2.205576276319381,0.8250807792837862
0.0006668889629876,-2.106343372986152,2.0475805035918584
0.0008336112037345,-1.998626161347255,3.2650722842027324
0.0010003334444814,-1.8473430138057796,4.444247968806147
0.0011670556852284,-1.6879059747927752,5.616252332927522
0.0013337779259753,-1.5284689357797707,6.788256697048897
0.0015005001667222,-1.3168822658387422,7.89177698023399
0.0016672224074691,-1.1003658825109663,8.988823451724487
0.001833944648216,-0.8838494991831906,10.085869923214982
0.0020006668889629,-0.6145925968676815,11.079984632302695
0.0021673891297099,-0.3445283580680816,12.07252369198926
0.0023341113704568,-0.0720648209697786,13.057877673416172
0.0025008336112037,0.240682332828154,13.922595992855983
0.0026675558519506,0.5534294866260867,14.787314312295798
0.0028342780926975,0.8701373168181441,15.633146310773585
0.0030010003334444,1.2139483044806982,16.349738028012666
0.0031677225741913,1.5577592921432526,17.066329745251746
0.0033344448149383,1.9053404049946585,17.75013038732998
0.0035011670556852,2.2681167331040277,18.30176898686316
0.0036678892964321,2.630893061213397,18.853407586396333
0.003834611537179,2.9954705877602263,19.35699701360441
0.0040013337779259,3.3649160615848333,19.730727990596737
0.0041680560186728,3.7343615354094415,20.104458967589068
0.0043347782594198,4.102079484352919,20.41585521472649
0.0045015005001667,4.466464369981463,20.606983670878545
0.0046682227409136,4.830849255610006,20.7981121270306
0.0048349449816605,5.188732988510926,20.91427188066277
0.0050016672224074,5.537363517649399,20.923727375944672
0.0051683894631543,5.885994046787872,20.933182871226578
0.0053351117039013,6.215380857869578,20.809338564027968
0.0055018339446482,6.537748503098934,20.6368730174755
0.0056685561853951,6.855396532503878,20.4409940194372
0.005835278426142,7.141847130703278,20.090348284192117
0.0060020006668889,7.428297728902677,19.739702548947037
0.0061687229076358,7.705522184004908,19.353741688405144
0.0063354451483827,7.946454804211644,18.82886571641448
0.0065021673891297,8.18738742441838,18.303989744423816
0.0066688896298766,8.413375408008255,17.733298521498938
0.0068356118706235,8.599761846154303,17.041202222732682
0.0070023341113704,8.786148284300353,16.349105923966427
0.0071690563521173,8.9514483954243,15.604885034009468
0.0073357785928642,9.076762913597024,14.761821292762386
0.0075025008336112,9.202077431769748,13.918757551515304
0.0076692230743581,9.302780654955152,13.025105783059049
0.007835945315105,9.369012865692063,12.060599534309462
0.0080026675558519,9.43524507642898,11.096093285559885
0.0081693897965988,9.478892278411577,10.091638655517697
0.0083361120373457,9.498829364734812,9.045245554202149
0.0085028342780926,9.49564854322126,7.96181876797594
0.0086695565188396,9.46957012966328,6.825288056867945
0.0088362787595865,9.4434570433599,5.660119030723628
0.0090030010003334,9.417344003669806,4.473711232979848
0.0091697232410803,9.391230139935546,3.2700699437898337
0.0093364454818272,9.36511745243284,2.046589336094941
0.0095031677225741,9.339005103657255,0.805623694466929
0.0096698899633211,9.312892312955269,-0.442803667693692
0.009836612204068,9.286779647136434,-1.6972502750214815
0.0100033344448149,9.260667632470144,-2.2972988691859104
0.0101700566855618,9.234554986513835,-1.6470735571733472
0.0103367789263087,9.208443741781936,-0.3925885536802687
0.0105035011670556,9.182331355714709,0.8539987903309254
0.0106702234078026,9.156219886627532,2.0875666681373986
0.0108369456485495,9.13010883692236,3.313858521288487
0.0110036678892964,9.103997419425117,4.518528005865533
0.0111703901300433,9.077886141328216,5.708209876872116
0.0113371123707902,9.051775718158371,6.87122466355696
0.0115038346115371,9.026972570075364,8.006176708364707
0.011670556852284,9.019305024017669,9.107746494762823
0.011837279093031,9.03977322585502,10.166151298681264
0.0120040013337779,9.08782384962042,11.173846294297434
0.0121707235745248,9.149507168677994,12.155281355170944
0.0123374458152717,9.239423928752876,13.068487712976689
0.0125041680560186,9.341834855061643,13.951500770662577
0.0126708902967655,9.444245781370416,14.834513828348475
0.0128376125375125,9.57802241355885,15.61532129644196
0.0130043347782594,9.721460263508837,16.364647551860436
0.0131710570190063,9.864898113458818,17.113973807278906
0.0133377792597532,10.036709309598242,17.72812841635524
0.0135045015005001,10.21409451800104,18.315728229626327
0.013671223741247,10.39147972640384,18.903328042897414
0.0138379459819939,10.587912986799113,19.33172021119794
0.0140046682227409,10.78629719486847,19.74380594644302
0.0141713904634878,10.984681402937827,20.155891681688104
0.0143381127042347,11.19172459835216,20.404903162594778
0.0145048349449816,11.398959116524887,20.65031147203126
0.0146715571857285,11.606140224579946,20.88798527198211
0.0148382794264754,11.812299474363536,20.9776801338714
0.0150050016672224,12.015952128656464,21.02821717877626
0.0151717239079693,12.212094502574097,20.96142927614413
0.0153384461487162,12.402413335351932,20.84613684676697
0.0155051683894631,12.579918062041449,20.624115171978
0.01567189063021,12.757422788730958,20.402093497189032
0.0158386128709569,12.922307072819116,20.10651760982268
0.0160053351117039,13.070822924769764,19.715543551803343
0.0161720573524508,13.219338776720416,19.324569493784
0.0163387795931977,13.347649155457942,18.844385157671542
0.0165055018339446,13.45628398039959,18.27733021935877
0.0166722240746915,13.564918805341236,17.710275281046005
0.0168389463154384,13.645946671907929,17.048671936970607
0.0170056685561853,13.706813040697526,16.318019426133656
0.0171723907969323,13.767679409487124,15.587366915296707
0.0173391130376792,13.80203123637344,14.779168070134844
0.0175058352784261,13.822057111665204,13.929070517617332
0.017672557519173,13.842082986956967,13.078972965099824
0.0178392797599199,13.83617683414744,12.159952641210312
0.0180060020006668,13.81004,11.159939063721293
0.0181727242414138,13.78389279582184,10.121158282714628
0.0183394464821607,13.757758572846482,9.042632771727126
0.0185061687229076,13.731617112782892,7.93612554422805
0.0186728909636545,13.705475652719302,6.797854323884714
0.0188396132044014,13.679334192655713,5.632203157965535
0.0190063354451483,13.653192461532331,4.433876867065737
0.0191730576858952,13.627050316660048,3.223053179993153
0.0193397799266422,13.600908785385512,1.9974809205431177
0.0195065021673891,13.57476762449864,0.7630059404541423
0.019673224408136,13.548626443328525,-0.4715096650392071
0.0198399466488829,13.522478394755996,-1.7145541287007289
0.0200066688896298,13.496338277751248,-2.295589297952614
0.0201733911303767,13.470201975833293,-1.6219354842150595
0.0203401133711237,13.444062147469346,-0.3669555330257918
0.0205068356118706,13.4179162362043,0.8790754344307061
0.0206735578526175,13.391780324939251,2.115815633211497
0.0208402800933644,13.36564130321394,3.3344736126297474
0.0210070023341113,13.339501348507971,4.534104030872697
0.0211737245748582,13.3133608945522,5.715519512986374
0.0213404468156052,13.287221601382472,6.873782464961211
0.0215071690563521,13.261083364636187,8.005261867917714
0.021673891297099,13.23494302350528,9.101311052445215
0.0218406135378459,13.20880307750037,10.196460032533585
0.0220073357785928,13.1826710092963,11.241311664953322
0.0221740580193397,13.158685122910835,12.237231934190232
0.0223407802600866,13.151652341007802,13.186204128282862
0.0225075025008336,13.168650891788772,14.07752934867118
0.0226742247415805,13.206749095353564,14.909074624956746
0.0228409469823274,13.259064971332403,15.698017904618863
0.0230076692230743,13.326192903033524,16.4304264254182
0.0231743914638212,13.410475717304948,17.0973580692995
0.0233411137045681,13.494758531576371,17.764289713180794
0.0235078359453151,13.594598499846942,18.347261649630887
0.023674558186062,13.707979440160376,18.857154920721243
0.0238412804268089,13.821360380473816,19.36704819181161
0.0240080026675558,13.946706018074272,19.774425337954423
0.0241747249083027,14.07983284701725,20.115131546690662
0.0243414471490496,14.212959675960231,20.455837755426916
0.0245081693897965,14.351268685173354,20.67968449352563
0.0246748916305435,14.492047621161912,20.847833760589943
0.0248416138712904,14.631601391373067,20.94106709605385
0.0250083361120373,14.769589724834905,20.93857775088125
0.0251750583527842,14.90757805829674,20.936088405708663
0.0253417805935311,15.035314450017315,20.802678105930795
0.025508502834278,15.159947770322011,20.629640476791455
0.025675225075025,15.280734774882044,20.427553817884323
0.0258419473157719,15.38178947311479,20.076440300045043
0.0260086695565188,15.482844171347534,19.72532678220576
0.0261753917972657,15.57605807466176,19.33336445172189
0.0263421140380126,15.643664610173598,18.807993381365108
0.0265088362787595,15.711271145685435,18.28262231100832
0.0266755585195065,15.768181634266544,17.71272595736108
0.0268422807602534,15.80080008041526,17.041707191105672
0.0270090030010003,15.833418526563976,16.37068842485025
0.0271757252417472,15.855079593169092,15.661037967857888
0.0273424474824941,15.856005863694122,14.878986835374878
0.027509169723241,15.8337420323311,14.015399049342388
0.0276758919639879,15.807591666028932,13.099882820441357
0.0278426142047349,15.781435917749214,12.137979877809087
0.0280093364454818,15.7552763728292,11.134523005274811
0.0281760586862287,15.729125703065646,10.08560426107594
0.0283427809269756,15.702971277359424,8.994350457725282
0.0285095031677225,15.67681566363717,7.876978961715416
0.0286762254084694,15.650660458781852,6.726080876068576
0.0288429476492164,15.624505508471431,5.554310419556885
0.0290096698899633,15.598350558161012,4.382539963045195
0.0291763921307102,15.57219568948591,3.1746831524273635
0.0293431143714571,15.546040837868706,1.9592860115137445
0.029509836612204,15.5198859862515,0.7438888706001001
0.0296765588529509,15.493730743704823,-0.4951491388450763
0.0298432810936978,15.467576017717226,-1.7448493277352457
0.0300100033344448,15.441424532699326,-2.2951748490393578
0.0301767255751917,15.415271265939328,-1.5967935755883715
0.0303434478159386,15.389113598661044,-0.3421948567632284
0.0305101700566855,15.362965618747856,0.9046230553136748
0.0306768922974324,15.33681345803086,2.143880581425911
0.0308436145381793,15.310658411578736,3.367020568281684
0.0310103367789263,15.284504334081037,4.566820187349184
0.0311770590196732,15.25835423294566,5.746067706755178
0.0313437812604201,15.23219714362912,6.904763271401803
0.031510503501167,15.206050175421655,8.041033526144881
0.0316772257419139,15.179895640943611,9.137032483644996
0.0318439479826608,15.153742292767625,10.202004704190248
0.0320106702234078,15.127589879533332,11.252443825728472
0.0321773924641547,15.101441421593652,12.256948684432103
0.0323441147049016,15.07528952357797,13.212010556928515
0.0325108369456485,15.051393597175236,14.121091647012236
0.0326775591863954,15.042744138437785,14.978363720248163
0.0328442814271423,15.054857678785227,15.774610657024166
0.0330110036678892,15.08712575756895,16.499934944280295
0.0331777259086362,15.126801849209544,17.197252948351853
0.0333444481493831,15.192052399392937,17.778225272459867
0.03351117039013,15.25730294957633,18.359197596567903
0.0336778926308769,15.32549429901744,18.920760561707937
0.0338446148716238,15.414690537763692,19.34369065840684
0.0340113371123707,15.50388677650994,19.76662075510574
0.0341780593531177,15.596138954977748,20.157156962906274
0.0343447815938646,15.70107932176668,20.413194522092677
0.0345115038346115,15.80601968855561,20.66923208127907
0.0346782260753584,15.91224906489639,20.88345328302023
0.0348449483161053,16.02204648254186,20.981924767963964
0.0350116705568522,16.1299440968987,21.01319005976717
0.0351783927975992,16.235275217419314,20.95366475157341
0.0353451150383461,16.33515143860987,20.830975591295065
0.035511837279093,16.42693658400232,20.61459753155333
0.0356785595198399,16.518721729394766,20.398219471811583
0.0358452817605868,16.59742291266049,20.08713521291749
0.0360120040013337,16.665719171413407,19.700736546695413
0.0361787262420806,16.734015430166327,19.31433788047334
0.0363454484828276,16.782185973803184,18.820992524289043
0.0365121707235745,16.818451075503752,18.264382454265697
0.0366788929643214,16.854716177204317,17.707772384242354
0.0368456152050683,16.870657235490718,17.06246268836145
0.0370123374458152,16.877871633671585,16.37906748604005
0.0371790596865621,16.88118702202125,15.680502971403042
0.0373457819273091,16.857981551600293,14.867543241001409
0.037512504168056,16.831825173232776,13.997553395242235
0.0376792264088029,16.80566024509247,13.078349715086514
0.0378459486495498,16.779500359671736,12.11975313025914
0.0380126708902967,16.75333206402808,11.118362691339255
0.0381793931310436,16.727172973495883,10.077972980839226
0.0383461153717905,16.70100732038052,8.994334014957444
0.0385128376125375,16.67484480559856,7.888276307409252
0.0386795598532844,16.648683466008702,6.745279410740426
0.0388462820940313,16.62252256306764,5.583656200880519
0.0390130043347782,16.596362125711373,4.399081513292751
0.0391797265755251,16.570201497648846,3.1862488041535766
0.039346448816272,16.544041243512204,1.964836286409164
0.039513171057019,16.517881241492926,0.7268043459544209
0.0396798932977659,16.491721981785048,-0.5194245828551503
0.0398466155385128,16.465556775609787,-1.771738462565258
0.0400133377792597,16.439397283777264,-2.2976939394324973
0.0401800600200066,16.413237776924642,-1.5716531929093638
0.0403467822607535,16.387081522588087,-0.3179495718885949
0.0405135045015005,16.36092018585844,0.9304246986265268
0.0406802267422474,16.334758673024226,2.165906088991353
0.0408469489829943,16.308597160190015,3.387946679797368
0.0410136712237412,16.28244691259463,4.594995663227476
0.0411803934644881,16.25628803214737,5.78171242087317
0.041347115705235,16.230129151700112,6.939307063396019
0.0415138379459819,16.203970271252853,8.067778546475918
0.0416805601867289,16.17781139080559,9.16712691443306
0.0418472824274758,16.151652510358332,10.237352485827296
0.0420140046682227,16.125493586744184,11.278268928645154
0.0421807269089696,16.099331473443854,12.271084348214016
0.0423474491497165,16.073179242403974,13.230338025293356
0.0425141713904634,16.047018967028595,14.139823107589944
0.0426808936312104,16.022644156883246,15.00075323224005
0.0428476158719573,16.01136457254598,15.808583281793553
0.0430143381127042,16.020294169238696,16.5492444678947
0.0431810603534511,16.04533672085228,17.226539923942685
0.043347782594198,16.08151820060445,17.8572255510918
0.0435145048349449,16.13432371320209,18.39785007766783
0.0436812270756918,16.194459385092717,18.89876328873819
0.0438479493164388,16.254595056983348,19.39967649980855
0.0440146715571857,16.32961978821556,19.782815108800328
0.0441813937979326,16.40921111865904,20.129831260851013
0.0443481160386795,16.488802449102522,20.476847412901694
0.0445148382794264,16.577690612017086,20.678283252965816
0.0446815605201733,16.66839496834057,20.851279083604997
0.0448482827609203,16.759269816643556,20.9341931820138
0.0450150050016672,16.850299880322147,20.93509714748275
0.0451817272424141,16.94132994400074,20.9360011129517
0.045348449483161,17.023723088584163,20.79507786406955
0.0455151717239079,17.10427442089197,20.623910137783973
0.0456818939646548,17.18007916987704,20.4116861043481
0.0458486162054017,17.240003144535258,20.062098855265084
0.0460153384461487,17.299927119193477,19.71251160618205
0.0461820606868956,17.350857595323493,19.31042780675892
0.0463487829276425,17.38094250362626,18.78666495247415
0.0465155051683894,17.411027411929027,18.262902098189382
0.0466822274091363,17.431019832232888,17.690040963175605
0.0468489496498832,17.434024567144526,17.034537555373
0.0470156718906302,17.437029302056164,16.379034147570394
0.0471823941313771,17.428897694772537,15.672822212465237
0.047349116372124,17.402732450009196,14.85064185011958
0.0475158386128709,17.376568319618116,13.976990851564604
0.0476825608536178,17.350403699580816,13.059120795220506
0.0478492830943647,17.324229079543525,12.100904683819907
0.0480160053351117,17.29806445950623,11.096377150640716
0.0481827275758586,17.271899859637397,10.050228522911182
0.0483494498166055,17.245735367677703,8.969637036380435
0.0485161720573524,17.21957072513557,7.850450648075668
0.0486828942980993,17.19340601194585,6.713156991288734
0.0488496165388462,17.16723975224674,5.548761065892682
0.0490163387795931,17.141072485226065,4.362658927465671
0.0491830610203401,17.114908680216367,3.1455308787885743
0.049349783261087,17.088744875206665,1.9284028301114773
0.0495165055018339,17.06258122099814,0.6898834556060252
0.0496832277425808,17.03641757690625,-0.5500709758849549
0.0498499499833277,17.010256216593973,-1.7805985511030458
0.0500166722240746,16.984090100187842,-2.295009569980004
0.0501833944648216,16.957926597582336,-1.5465192377447703
0.0503501167055685,16.931762523825892,-0.2923482159337457
0.0505168389463154,16.905603657580528,0.9560508489500618
0.0506835611870623,16.87943895757314,2.1930824771133888
0.0508502834278092,16.853274257565758,3.411184916666965
0.0510170056685561,16.827109557558373,4.613223567116492
0.051183727909303,16.800944857550988,5.7971593013290486
0.05135045015005,16.774781516710814,6.950291309753451
0.0515171723907969,16.748619903742366,8.079500503066244
0.0516838946315438,16.722458598330952,9.190918981615164
0.0518506168722907,16.696296653687224,10.257475142938995
0.0520173391130376,16.67013313057994,11.285742631045444
0.0521840613537845,16.64397191634276,12.27884048787409
0.0523507835945315,16.617814044576967,13.24521458187158
0.0525175058352784,16.591650240429704,14.157537499716485
0.0526842280760253,16.56553001175733,15.018896883849065
0.0528509503167722,16.54445520769847,15.828998288088522
0.0530176725575191,16.54003724381992,16.57869143095487
0.053184394798266,16.553615321604862,17.260123844131517
0.053351117039013,16.57972520933899,17.888524414896306
0.0535178392797599,16.625345296058388,18.41245347308336
0.0536845615205068,16.673900961553883,18.92066334997138
0.0538512837612537,16.722895803686054,19.425517881358864
0.0540180060020006,16.791075970408293,19.783794960385208
0.0541847282427475,16.859256137130537,20.142072039411552
0.0543514504834945,16.92859507625861,20.48389435420715
0.0545181727242414,17.00914629478861,20.666500404342536
0.0546848949649883,17.08969751331861,20.849106454477912
0.0548516172057352,17.17114063425297,20.92118701809981
0.0550183394464821,17.253103635369627,20.928843481286023
0.055185061687229,17.335066636486278,20.93649994447223
0.0553517839279759,17.408553151993754,20.790550261973834
0.0555185061687229,17.480853264358625,20.62310124326873
0.0556852284094698,17.547111794316613,20.40124634067908
0.0558519506502167,17.59952393169574,20.05470138569408
0.0560186728909636,17.651936069074864,19.7081564307091
0.0561853951317105,17.694601065781594,19.301596956450684
0.0563521173724574,17.721025660646546,18.795043038478028
0.0565188396132044,17.747450255511502,18.288489120505368
0.0566855618539513,17.763005005407198,17.72756036791423
0.0568522840946982,17.76507734141426,17.099187780795067
0.0570190063354451,17.757554506184,16.428045086234835
0.057185728576192,17.731869721478233,15.656847407286126
0.0573524508169389,17.705696822033733,14.833681233010482
0.0575191730576858,17.67953046029905,13.95923432659808
0.0576858952984328,17.653361660783002,13.040329667193792
0.0578526175391797,17.627191906983033,12.082195977842458
0.0580193397799266,17.601026583059806,11.078144550211096
0.0581860620206735,17.57486214505653,10.035272586501044
0.0583527842614204,17.54869383529579,8.95147117314691
0.0585195065021673,17.522525525535052,7.841903279155477
0.0586862287429143,17.49635721577431,6.7065721054094505
0.0588529509836612,17.47018890601357,5.545477758050426
0.0590196732244081,17.444020596252827,4.358619605953493
0.059186395465155,17.417852286492085,3.145997926115584
0.0593531177059019,17.391685273421658,1.9167330848926647
