time,V(n001),I(R2)
0.0,6.342839e-26,3.3383360000000004e-27
0.0001667222407469,6.209011933872094e-06,3.267900866133317e-07
0.0003334444814938,0.0066904719351433,0.0003521301029447
0.0005001667222407,0.0407885587381999,0.0021467664997747
0.0006668889629876,0.1092000251231123,0.0057473698004191
0.0008336112037345,0.2079336573084716,0.0109438760681225
0.0010003334444814,0.3264509506247152,0.0171816273099126
0.0011670556852284,0.4489324447893772,0.0236280209245874
0.0013337779259753,0.6210507967733719,0.0326868835321232
0.0015005001667222,0.7931691487573667,0.0417457461396591
0.0016672224074691,0.9733359767132332,0.0512282116755276
0.001833944648216,1.2008668304644836,0.0632035143764279
0.0020006668889629,1.4283976842157338,0.0751788170773282
0.0021673891297099,1.6662187960958184,0.0876957163583194
0.0023341113704568,1.94127188845994,0.1021722082022674
0.0025008336112037,2.2163249808240613,0.1166487000462154
0.0026675558519506,2.50174412641851,0.1316707703287474
0.0028342780926975,2.812812381170094,0.1480427855338158
0.0030010003334444,3.1238806359216778,0.1644148007388841
0.0031677225741913,3.443546277660455,0.1812393145134289
0.0033344448149383,3.778555099267657,0.1988713721326353
0.0035011670556852,4.113563920874858,0.2165034297518417
0.0036678892964321,4.453572609368802,0.2343986189230059
0.003834611537179,4.800198145880973,0.2526420376625858
0.0040013337779259,5.146823682393143,0.2708854564021657
0.0041680560186728,5.49375670467408,0.2891450631111876
0.0043347782594198,5.840995138818796,0.3074207486063526
0.0045015005001667,6.188233572963511,0.3256964341015176
0.0046682227409136,6.530477834715271,0.3437092971222574
0.0048349449816605,6.8690001459031125,0.3615262894000733
0.0050016672224074,7.198000791882212,0.3788421446586167
0.0051683894631543,7.5190136070171425,0.3957375904980154
0.0053351117039013,7.829334121494793,0.412070268784604
0.0055018339446482,8.1242074145908,0.4275899139127261
0.0056685561853951,8.419080707686806,0.4431095590408482
0.005835278426142,8.691854749425968,0.4574660835506193
0.0060020006668889,8.950195369632704,0.4710629529070714
0.0061687229076358,9.20853598983944,0.4846598222635236
0.0063354451483827,9.434998488008594,0.4965788920776485
0.0065021673891297,9.646196524687486,0.5076945674361013
0.0066688896298766,9.85739456136638,0.5188102427945541
0.0068356118706235,10.027370107834662,0.5277563335548353
0.0070023341113704,10.183420674023392,0.5359695374227913
0.0071690563521173,10.33947124021212,0.5441827412907473
0.0073357785928642,10.445638670173263,0.5497704315932648
0.0075025008336112,10.540765845898507,0.5547770369950654
0.0076692230743581,10.63589302162375,0.559783642396866
0.007835945315105,10.68575841525572,0.5624082678784864
0.0080026675558519,10.730033867072994,0.5647387129601803
0.0081693897965988,10.774309318890266,0.5670691580418742
0.0083361120373457,10.775156101713254,0.5671135265439882
0.0085028342780926,10.760323446936042,0.5663329075927015
0.0086695565188396,10.745514988078927,0.5655532700215767
0.0088362787595865,10.730715651414316,0.5647746137379515
0.0090030010003334,10.715943362246104,0.56399708030411
0.0091697232410803,10.701187773425438,0.5632204518573969
0.0093364454818272,10.686454992044796,0.5624450721762977
0.0095031677225741,10.67174930053077,0.5616707837607893
0.0096698899633211,10.657056507350005,0.5608974993476041
0.009836612204068,10.642381021326788,0.560125233717507
0.0100033344448149,10.627727825435173,0.5593540367002385
0.0101700566855618,10.613090768374368,0.5585838887069727
0.0103367789263087,10.5984791003565,0.5578149255357107
0.0105035011670556,10.583890497198066,0.5570469656529801
0.0106702234078026,10.569318807598275,0.5562800667604996
0.0108369456485495,10.554770617438969,0.5555143763373849
0.0110036678892964,10.540236382875271,0.5547493265146631
0.0111703901300433,10.525727296050109,0.5539855391956335
0.0113371123707902,10.511234385193765,0.5532226330474523
0.0115038346115371,10.49676075313577,0.5524609168772662
0.011670556852284,10.482451826961311,0.5517080861586928
0.011837279093031,10.478372219003768,0.5514930406627909
0.0120040013337779,10.499455314276462,0.5526029325228249
0.0121707235745248,10.54189375128064,0.5548367477186623
0.0123374458152717,10.616542004502335,0.5587653794460619
0.0125041680560186,10.691190257724031,0.5626940111734614
0.0126708902967655,10.798371523184272,0.5683351059080688
0.0128376125375125,10.910434477502378,0.5742331615266082
0.0130043347782594,11.022497431820485,0.5801312171451477
0.0131710570190063,11.16798201128746,0.5877884375430052
0.0133377792597532,11.315569126992695,0.5955563260391706
0.0135045015005001,11.463475810872628,0.6033410322599416
0.013671223741247,11.637467034613874,0.6124984740738795
0.0138379459819939,11.811458258355122,0.6216559158878175
0.0140046682227409,11.98658872573056,0.6308733153453576
0.0141713904634878,12.174241249905286,0.6407497424210495
0.0143381127042347,12.36189377408001,0.6506261694967413
0.0145048349449816,12.549910163972154,0.6605217435365859
0.0146715571857285,12.739915048745358,0.6705219540903491
0.0148382794264754,12.928284192947377,0.6804360847960608
0.0150050016672224,13.111243075290847,0.6900655037773659
0.0151717239079693,13.29420195763432,0.6996949227586712
0.0153384461487162,13.465754742033214,0.708723969498646
0.0155051683894631,13.631888398229597,0.7174677745932476
0.01567189063021,13.797217332909824,0.7261692270342223
0.0158386128709569,13.936244368588383,0.7334864052936421
0.0160053351117039,14.075271404266942,0.7408035835530618
0.0161720573524508,14.210566187755752,0.7479243436369639
0.0163387795931977,14.312631569549684,0.7532963316329626
0.0165055018339446,14.414696951343617,0.7586683196289613
0.0166722240746915,14.508980509659368,0.763630711963791
0.0168389463154384,14.565872433634024,0.7666249985926673
0.0170056685561853,14.622764357608684,0.7696192852215435
0.0171723907969323,14.670461172624814,0.7721296165588927
0.0173391130376792,14.689599285329049,0.7731368515038743
0.0175058352784261,14.708737398033282,0.774144086448856
0.017672557519173,14.718577362782762,0.7746617975274505
0.0178392797599199,14.69833268808778,0.773596234404389
0.0180060020006668,14.67808927615131,0.7725311991191264
0.0181727242414138,14.6578863331573,0.7714676532623381
0.0183394464821607,14.63770289196071,0.7704055213946263
0.0185061687229076,14.617548518665055,0.7693449155813767
0.0186728909636545,14.59743392317206,0.7682859668165325
0.0188396132044014,14.577342967504856,0.7672285320783614
0.0190063354451483,14.55727381219879,0.7661723988979797
0.0191730576858952,14.537250030454077,0.7651183772169916
0.0193397799266422,14.517276271139728,0.7640670452363034
0.0195065021673891,14.49738491551395,0.7630201440924269
0.019673224408136,14.47749355988817,0.7619732429485503
0.0198399466488829,14.457602204262392,0.7609263418046737
0.0200066688896298,14.437710848636613,0.759879440660797
0.0201733911303767,14.417819493010835,0.7588325395169204
0.0203401133711237,14.397928137385057,0.7577856383730438
0.0205068356118706,14.378036781759278,0.7567387372291673
0.0206735578526175,14.3581454261335,0.7556918360852907
0.0208402800933644,14.338382809970424,0.7546516455497062
0.0210070023341113,14.318647164755353,0.7536128608881524
0.0211737245748582,14.29891151954028,0.7525740762265986
0.0213404468156052,14.279234137022064,0.7515384193519286
0.0215071690563521,14.259563366765311,0.7505031174512949
0.021673891297099,14.23989259650856,0.7494678155506614
0.0218406135378459,14.220268256525843,0.748435212663414
0.0220073357785928,14.200681580796807,0.7474043680546578
0.0221740580193397,14.181129782347025,0.7463753597028957
0.0223407802600866,14.16347052996992,0.745445672571261
0.0225075025008336,14.16115987943704,0.7453242273467788
0.0226742247415805,14.180479950811613,0.7463411658719855
0.0228409469823274,14.22170549392152,0.7485109433592894
0.0230076692230743,14.270150913057003,0.7510607080248661
0.0231743914638212,14.346706778345432,0.7550898526730823
0.0233411137045681,14.423262643633862,0.7591189973212984
0.0235078359453151,14.502462277895477,0.7632873099682629
0.023674558186062,14.605480297235257,0.7687094224057419
0.0238412804268089,14.708498316575035,0.7741315348432212
0.0240080026675558,14.814636642206064,0.7797178462385894
0.0241747249083027,14.935881110362114,0.7860990837177491
0.0243414471490496,15.057125578518168,0.7924803211969087
0.0245081693897965,15.179954298827523,0.7989449785476087
0.0246748916305435,15.307732151500982,0.8056702358193428
0.0248416138712904,15.434610589532712,0.8123480973651146
0.0250083361120373,15.559145630184569,0.8189024707944106
0.0251750583527842,15.683680670836424,0.8254568442237067
0.0253417805935311,15.798800227683085,0.831515712939387
0.025508502834278,15.91002371486474,0.8373695448323687
0.025675225075025,16.01972603421782,0.8431433266987295
0.0258419473157719,16.107539412010418,0.8477652235976958
0.0260086695565188,16.195352789803014,0.8523871204966621
0.0261753917972657,16.27865291517795,0.8567714388577952
0.0263421140380126,16.333345919512727,0.8596498724689989
0.0265088362787595,16.388038923847507,0.8625283060802027
0.0266755585195065,16.436047486515704,0.8650549560660398
0.0268422807602534,16.458535195752116,0.8662385143187907
0.0270090030010003,16.481022904988528,0.8674220725715417
0.0271757252417472,16.496458893748624,0.8682344932972762
0.0273424474824941,16.483931713310987,0.8675752521185555
0.027509169723241,16.46125401250506,0.8663819498896895
0.0276758919639879,16.43859736770463,0.865189255137518
0.0278426142047349,16.415963117986806,0.8639980446919696
0.0280093364454818,16.39335999825675,0.8628086333705228
0.0281760586862287,16.37079676296245,0.8616207836586297
0.0283427809269756,16.348261756300825,0.8604346243457578
0.0285095031677225,16.32575671859258,0.8592504216700507
0.0286762254084694,16.303285992139713,0.8580678527966388
0.0288429476492164,16.28085382958245,0.8568870013761217
0.0290096698899633,16.258457747069777,0.8557082925418317
0.0291763921307102,16.23608091230869,0.8545307267207481
0.0293431143714571,16.213746246637537,0.8533553371769781
0.029509836612204,16.19153624774902,0.8521863814806349
0.0296765588529509,16.1693262488605,0.8510174257842916
0.0298432810936978,16.147116249971983,0.8498484700879484
0.0300100033344448,16.124906251083466,0.8486795143916052
0.0301767255751917,16.102696252194946,0.8475105586952619
0.0303434478159386,16.080486253306425,0.8463416029989187
0.0305101700566855,16.05827625441791,0.8451726473025755
0.0306768922974324,16.03606625552939,0.8440036916062322
0.0308436145381793,16.0139401692908,0.8428390749374203
0.0310103367789263,15.991909999234116,0.8416794179851028
0.0311770590196732,15.969879829177431,0.8405197610327854
0.0313437812604201,15.947895576436617,0.8393626387163039
0.031510503501167,15.925950768167192,0.8382076937346433
0.0316772257419139,15.904005959897768,0.8370527487529829
0.0318439479826608,15.882104833877577,0.8359001334912812
0.0320106702234078,15.860231729509454,0.8347490127176901
0.0321773924641547,15.838358625141332,0.8335978919440988
0.0323441147049016,15.816523621720766,0.832448659431854
0.0325108369456485,15.794745783914328,0.8313026477111727
0.0326775591863954,15.77686219915191,0.830361140215822
0.0328442814271423,15.775045064289218,0.8302655359669278
0.0330110036678892,15.792823477818564,0.8312012778967751
0.0331777259086362,15.829272155862904,0.8331195660993561
0.0333444481493831,15.871129084129914,0.8353224440800487
0.03351117039013,15.934583301801103,0.8386621535154168
0.0336778926308769,16.00078307505886,0.8421463826584644
0.0338446148716238,16.06698284831661,0.8456306118015121
0.0340113371123707,16.152269463384847,0.8501194529065191
0.0341780593531177,16.23838243437518,0.8546517882182898
0.0343447815938646,16.324826896590245,0.8592015626667676
0.0345115038346115,16.42206703469541,0.8643192775421543
0.0346782260753584,16.519307172800566,0.8694369924175408
0.0348449483161053,16.616566489613504,0.87455585031983
0.0350116705568522,16.713839532247178,0.8796755262638009
0.0351783927975992,16.811112574880852,0.8847952022077717
0.0353451150383461,16.899261866555072,0.8894347648945089
0.035511837279093,16.985593797683322,0.8939786937903662
0.0356785595198399,17.066474485319684,0.8982356461368275
0.0358452817605868,17.131707963145626,0.9016688630758072
0.0360120040013337,17.196941440971568,0.9051020800147868
0.0361787262420806,17.252174934573638,0.9080090258344476
0.0363454484828276,17.287074247678007,0.9098458407727604
0.0365121707235745,17.321973560782375,0.9116826557110732
0.0366788929643214,17.345696098384213,0.912931211381174
0.0368456152050683,17.352719666240166,0.913300862064735
0.0370123374458152,17.359743234096115,0.9136705127482962
0.0371790596865621,17.35495212684816,0.9134182945780734
0.0373457819273091,17.331064160727603,0.9121612242988758
0.037512504168056,17.307201248825315,0.9109053325200234
0.0376792264088029,17.283369413055965,0.909651231404524
0.0378459486495498,17.25957758344435,0.908398994221504
0.0380126708902967,17.235815670727114,0.9071483079243446
0.0381793931310436,17.21208367490425,0.9058993468897534
0.0383461153717905,17.188392521098486,0.9046520271249608
0.0385128376125375,17.164732293511324,0.9034069356669182
0.0386795598532844,17.141113757400127,0.9021637396493352
0.0388462820940313,17.117506326782465,0.9009211550681594
0.0390130043347782,17.093970932952885,0.8996825366245326
0.0391797265755251,17.070435539123302,0.8984439181809056
0.039346448816272,17.046900145293723,0.8972052997372788
0.039513171057019,17.023524835540982,0.8959750443289659
0.0396798932977659,17.000154578715648,0.8947450528932551
0.0398466155385128,16.97678432189031,0.8935150614575442
0.0400133377792597,16.953414065064973,0.8922850700218334
0.0401800600200066,16.930043808239635,0.8910550785861225
0.0403467822607535,16.9066735514143,0.8898250871504116
0.0405135045015005,16.88334716253791,0.8885973751909566
0.0406802267422474,16.86012534193104,0.8873750968315034
0.0408469489829943,16.83690352132417,0.8861528184720503
0.0410136712237412,16.81371551840303,0.8849323311974338
0.0411803934644881,16.790585888526405,0.883714935532212
0.041347115705235,16.76745625864978,0.8824975398669903
0.0415138379459819,16.744367018649612,0.8812823132877265
0.0416805601867289,16.72132957950323,0.880069868606166
0.0418472824274758,16.69829214035685,0.8788574239246054
0.0420140046682227,16.675292966598544,0.8776469968725982
0.0421807269089696,16.652330645824954,0.8764385129779667
0.0423474491497165,16.629368325051363,0.8752300290833351
0.0425141713904634,16.606439329066017,0.8740233018642816
0.0426808936312104,16.583594672399833,0.8728208570633055
0.0428476158719573,16.5653125308498,0.8718585455276967
0.0430143381127042,16.56253372913179,0.8717122054686579
0.0431810603534511,16.5782449728173,0.8725389349426552
0.043347782594198,16.610485614084816,0.8742358217748079
0.0435145048349449,16.647264938009148,0.8761716366936837
0.0436812270756918,16.705115549984193,0.8792164443039502
0.0438479493164388,16.76373519653304,0.8823017265980483
0.0440146715571857,16.822957711327625,0.8854187413931887
0.0441813937979326,16.89828778135097,0.8893835915432388
0.0443481160386795,16.97361785137431,0.8933484416932888
0.0445148382794264,17.049880591837198,0.8973623588530767
0.0446815605201733,17.133897458636284,0.9017842140972248
0.0448482827609203,17.21766326548786,0.906192869256782
0.0450150050016672,17.30068490032104,0.9105623977707306
0.0451817272424141,17.383706535154225,0.9149319262846792
0.045348449483161,17.458793427577202,0.9188838679378832
0.0455151717239079,17.530840959967918,0.9226758552095924
0.0456818939646548,17.60152338230058,0.9263959863905769
0.0458486162054017,17.652726796772072,0.9290907897250216
0.0460153384461487,17.703930211243563,0.9317855930594664
0.0461820606868956,17.751641620548913,0.9342966329496526
0.0463487829276425,17.77731503168596,0.9356479441867316
0.0465155051683894,17.802988442823004,0.9369992554238108
0.0466822274091363,17.823788755239402,0.9380940741888336
0.0468489496498832,17.826041633373816,0.9382126604697636
0.0470156718906302,17.815563117425363,0.9376610146852852
0.0471823941313771,17.791311569344558,0.9363846582874206
0.047349116372124,17.766809698528423,0.9350953987759368
0.0475158386128709,17.742353365334967,0.93380806588709
0.0476825608536178,17.71792831496157,0.932522399638795
0.0478492830943647,17.6935322076894,0.9312385861732988
0.0480160053351117,17.669172226701715,0.929956446270593
0.0481827275758586,17.644854654697326,0.9286763734470764
0.0483494498166055,17.62056534598167,0.9273980264641792
0.0485161720573524,17.596310473650636,0.9261215945954004
0.0486828942980993,17.57208589949863,0.9248467516479882
0.0488496165388462,17.547916788501666,0.9235744395789386
0.0490163387795931,17.52377173600263,0.9223035334515792
0.0491830610203401,17.499668683992617,0.9210350817683296
0.049349783261087,17.4755656319826,0.9197666300850802
0.0495165055018339,17.451550666836628,0.918502723977889
0.0496832277425808,17.427582784209086,0.917241247485725
0.0498499499833277,17.40361490158154,0.915979770993561
0.0500166722240746,17.379647018954,0.9147182945013967
0.0501833944648216,17.355679136326458,0.9134568180092328
0.0503501167055685,17.331711253698913,0.9121953415170688
0.0505168389463154,17.307858629527026,0.910939912703872
0.0506835611870623,17.28403586193783,0.9096860504831316
0.0508502834278092,17.260213094348636,0.9084321882623916
0.0510170056685561,17.23647307734719,0.907182670447508
0.051183727909303,17.212745914959726,0.9059338274998588
0.05135045015005,17.189018752572263,0.9046849845522096
0.0515171723907969,17.165377957585147,0.9034408438296904
0.0516838946315438,17.14174298592793,0.9021970201551324
0.0518506168722907,17.118108707660372,0.9009532308727012
0.0520173391130376,17.094559097790416,0.8997136411427913
0.0521840613537845,17.07100948792046,0.8984740514128814
0.0523507835945315,17.047464328012847,0.8972347146350996
0.0525175058352784,17.023970754529817,0.8959983102182851
0.0526842280760253,17.00052772893821,0.8947644773603612
0.0528509503167722,16.978220522836814,0.8935906342704775
0.0530176725575191,16.966142211234473,0.8929545960403649
0.053184394798266,16.973087302048263,0.8933204649781249
0.053351117039013,16.993612318445766,0.8944006588507022
0.0535178392797599,17.026571285753022,0.8961353113183618
0.0536845615205068,17.07186001552763,0.898518912307905
0.0538512837612537,17.125436487685015,0.901338719443617
0.0540180060020006,17.179012959842403,0.9041585265793288
0.0541847282427475,17.243028912299007,0.9075278233479532
0.0543514504834945,17.312202690224982,0.9111686060088402
0.0545181727242414,17.381376468150957,0.9148093886697272
0.0546848949649883,17.456321805429422,0.9187537851505708
0.0548516172057352,17.533288646936164,0.9228045231906576
0.0550183394464821,17.60875474507253,0.9267764748025314
0.055185061687229,17.683730953148526,0.930722708034544
0.0553517839279759,17.75237070883496,0.9343353846215984
0.0555185061687229,17.815826163330545,0.9376751548557982
0.0556852284094698,17.87928161782613,0.941014925089998
0.0558519506502167,17.926337668939183,0.9434915781609808
0.0560186728909636,17.968537122090233,0.9457126235761192
0.0561853951317105,18.010736575241285,0.9479336689912574
0.0563521173724574,18.03245225218903,0.9490765966883844
0.0565188396132044,18.050347497270725,0.9500184445043228
0.0566855618539513,18.06824274235242,0.9509602923202616
0.0568522840946982,18.066615981535897,0.9508743864190846
0.0570190063354451,18.047388083793216,0.949862642483836
0.057185728576192,18.02256212018568,0.9485559123698408
0.0573524508169389,17.997748072621174,0.9472499770647276
0.0575191730576858,17.972970270032853,0.9459458863978564
0.0576858952984328,17.94823263338712,0.9446435918325804
0.0578526175391797,17.923523877527835,0.9433433198903796
0.0580193397799266,17.898857191370574,0.9420450445282628
0.0581860620206735,17.874219760899493,0.9407485054983288
0.0583527842614204,17.84963178495117,0.939454363378792
0.0585195065021673,17.82507560252264,0.9381618849239736
0.0586862287429143,17.800563111692366,0.9368716927265744
0.0588529509836612,17.776050620862087,0.9355815005291752
