time,V(n001),I(R2)
0.0,6.342839e-26,3.338336e-27
0.00016672224074691563,6.209011933872094e-06,3.2679008661333166e-07
0.00033344448149383126,0.006690471935143398,0.00035213010294471686
0.0005001667222407468,0.04078855873819997,0.002146766499774719
0.0006668889629876625,0.1092000251231123,0.005747369800419171
0.0008336112037345782,0.20793365730847166,0.010943876068122577
0.0010003334444814937,0.32645095062471524,0.017181627309912646
0.0011670556852284093,0.4489324447893772,0.023628020924587427
0.001333777925975325,0.6210507967733719,0.032686883532123276
0.0015005001667222407,0.7931691487573667,0.04174574613965912
0.0016672224074691564,0.9733359767132332,0.05122821167552762
0.0018339446482160719,1.2008668304644836,0.06320351437642792
0.0020006668889629873,1.4283976842157338,0.07517881707732821
0.002167389129709903,1.6662187960958184,0.08769571635831948
0.0023341113704568187,1.9412718884599398,0.10217220820226747
0.0025008336112037344,2.2163249808240613,0.11664870004621544
0.00266755585195065,2.50174412641851,0.13167077032874747
0.0028342780926975657,2.812812381170094,0.14804278553381583
0.0030010003334444814,3.1238806359216778,0.16441480073888418
0.003167722574191397,3.443546277660455,0.18123931451342895
0.003334444814938313,3.778555099267657,0.19887137213263537
0.003501167055685228,4.113563920874858,0.21650342975184173
0.0036678892964321437,4.453572609368802,0.23439861892300598
0.0038346115371790594,4.800198145880973,0.25264203766258586
0.004001333777925975,5.146823682393143,0.2708854564021657
0.00416805601867289,5.49375670467408,0.2891450631111876
0.004334778259419806,5.840995138818796,0.30742074860635266
0.004501500500166722,6.188233572963511,0.32569643410151766
0.004668222740913637,6.5304778347152705,0.3437092971222574
0.004834944981660553,6.8690001459031125,0.3615262894000733
0.005001667222407469,7.198000791882212,0.37884214465861676
0.005168389463154384,7.5190136070171425,0.3957375904980154
0.0053351117039013,7.829334121494793,0.41207026878460407
0.005501833944648216,8.1242074145908,0.42758991391272616
0.0056685561853951315,8.419080707686806,0.44310955904084826
0.005835278426142047,8.691854749425968,0.4574660835506193
0.006002000666888963,8.950195369632704,0.47106295290707145
0.0061687229076358785,9.20853598983944,0.4846598222635236
0.006335445148382794,9.434998488008594,0.4965788920776485
0.00650216738912971,9.646196524687486,0.5076945674361013
0.006668889629876626,9.85739456136638,0.5188102427945541
0.00683561187062354,10.027370107834662,0.5277563335548353
0.007002334111370456,10.183420674023392,0.5359695374227913
0.007169056352117372,10.33947124021212,0.5441827412907473
0.0073357785928642874,10.445638670173265,0.5497704315932648
0.007502500833611203,10.540765845898507,0.5547770369950654
0.007669223074358119,10.63589302162375,0.559783642396866
0.007835945315105034,10.68575841525572,0.5624082678784864
0.00800266755585195,10.730033867072994,0.5647387129601803
0.008169389796598866,10.774309318890266,0.5670691580418742
0.00833611203734578,10.775156101713254,0.5671135265439882
0.008502834278092697,10.760323446936042,0.5663329075927015
0.008669556518839612,10.745514988078927,0.5655532700215767
0.008836278759586529,10.730715651414316,0.5647746137379515
0.009003001000333443,10.715943362246104,0.56399708030411
0.00916972324108036,10.701187773425438,0.5632204518573969
0.009336445481827275,10.686454992044796,0.5624450721762977
0.009503167722574191,10.67174930053077,0.5616707837607893
0.009669889963321106,10.657056507350003,0.5608974993476041
0.009836612204068023,10.642381021326788,0.560125233717507
0.010003334444814937,10.627727825435171,0.5593540367002385
0.010170056685561854,10.613090768374368,0.5585838887069727
0.010336778926308769,10.5984791003565,0.5578149255357107
0.010503501167055685,10.583890497198066,0.5570469656529801
0.0106702234078026,10.569318807598277,0.5562800667604996
0.010836945648549515,10.554770617438969,0.5555143763373849
0.011003667889296432,10.540236382875273,0.5547493265146631
0.011170390130043346,10.525727296050107,0.5539855391956335
0.011337112370790263,10.511234385193763,0.5532226330474523
0.011503834611537178,10.49676075313577,0.5524609168772662
0.011670556852284094,10.482451826961313,0.5517080861586928
0.01183727909303101,10.478372219003768,0.5514930406627909
0.012004001333777926,10.499455314276462,0.5526029325228249
0.01217072357452484,10.541893751280641,0.5548367477186623
0.012337445815271757,10.616542004502337,0.5587653794460619
0.012504168056018672,10.691190257724031,0.5626940111734614
0.012670890296765588,10.798371523184272,0.5683351059080688
0.012837612537512503,10.910434477502378,0.5742331615266082
0.01300433477825942,11.022497431820485,0.5801312171451477
0.013171057019006335,11.16798201128746,0.5877884375430052
0.013337779259753251,11.315569126992695,0.5955563260391706
0.013504501500500166,11.463475810872627,0.6033410322599416
0.01367122374124708,11.637467034613874,0.6124984740738795
0.013837945981993997,11.811458258355122,0.6216559158878175
0.014004668222740912,11.986588725730561,0.6308733153453576
0.014171390463487829,12.174241249905286,0.6407497424210495
0.014338112704234744,12.36189377408001,0.6506261694967413
0.01450483494498166,12.549910163972154,0.6605217435365859
0.014671557185728575,12.739915048745358,0.6705219540903491
0.014838279426475491,12.928284192947377,0.6804360847960608
0.015005001667222406,13.111243075290847,0.6900655037773659
0.015171723907969323,13.29420195763432,0.6996949227586712
0.015338446148716238,13.465754742033214,0.708723969498646
0.015505168389463154,13.631888398229595,0.7174677745932476
0.01567189063021007,13.797217332909824,0.7261692270342223
0.015838612870956986,13.936244368588385,0.7334864052936421
0.0160053351117039,14.075271404266942,0.7408035835530618
0.016172057352450815,14.210566187755752,0.7479243436369639
0.01633877959319773,14.312631569549685,0.7532963316329626
0.016505501833944648,14.414696951343617,0.7586683196289613
0.01667222407469156,14.508980509659368,0.763630711963791
0.016838946315438478,14.565872433634025,0.7666249985926673
0.017005668556185394,14.622764357608684,0.7696192852215435
0.01717239079693231,14.670461172624814,0.7721296165588927
0.017339113037679224,14.689599285329049,0.7731368515038743
0.01750583527842614,14.708737398033282,0.774144086448856
0.017672557519173057,14.718577362782762,0.7746617975274505
0.017839279759919974,14.69833268808778,0.773596234404389
0.018006002000666887,14.67808927615131,0.7725311991191264
0.018172724241413803,14.6578863331573,0.7714676532623381
0.01833944648216072,14.63770289196071,0.7704055213946263
0.018506168722907636,14.617548518665055,0.7693449155813767
0.01867289096365455,14.59743392317206,0.7682859668165325
0.018839613204401466,14.577342967504855,0.7672285320783614
0.019006335445148383,14.55727381219879,0.7661723988979797
0.019173057685895296,14.537250030454075,0.7651183772169916
0.019339779926642212,14.517276271139728,0.7640670452363034
0.01950650216738913,14.49738491551395,0.7630201440924269
0.019673224408136045,14.47749355988817,0.7619732429485503
0.01983994664888296,14.457602204262392,0.7609263418046737
0.020006668889629875,14.437710848636613,0.759879440660797
0.02017339113037679,14.417819493010835,0.7588325395169204
0.020340113371123708,14.397928137385057,0.7577856383730438
0.02050683561187062,14.378036781759278,0.7567387372291673
0.020673557852617538,14.358145426133499,0.7556918360852907
0.020840280093364454,14.338382809970424,0.7546516455497062
0.02100700233411137,14.318647164755353,0.7536128608881524
0.021173724574858284,14.298911519540281,0.7525740762265986
0.0213404468156052,14.279234137022064,0.7515384193519286
0.021507169056352117,14.259563366765311,0.7505031174512949
0.02167389129709903,14.23989259650856,0.7494678155506614
0.021840613537845947,14.220268256525843,0.748435212663414
0.022007335778592863,14.200681580796807,0.7474043680546578
0.02217405801933978,14.181129782347025,0.7463753597028957
0.022340780260086693,14.163470529969919,0.745445672571261
0.02250750250083361,14.16115987943704,0.7453242273467788
0.022674224741580526,14.180479950811613,0.7463411658719855
0.022840946982327442,14.221705493921519,0.7485109433592894
0.023007669223074356,14.270150913057003,0.7510607080248661
0.023174391463821272,14.346706778345432,0.7550898526730823
0.02334111370456819,14.423262643633862,0.7591189973212984
0.023507835945315105,14.502462277895477,0.7632873099682629
0.02367455818606202,14.605480297235255,0.7687094224057419
0.023841280426808935,14.708498316575035,0.7741315348432212
0.02400800266755585,14.814636642206064,0.7797178462385894
0.024174724908302764,14.935881110362114,0.7860990837177491
0.02434144714904968,15.057125578518168,0.7924803211969087
0.024508169389796598,15.179954298827525,0.7989449785476087
0.024674891630543514,15.307732151500982,0.8056702358193428
0.024841613871290427,15.434610589532713,0.8123480973651146
0.025008336112037344,15.559145630184569,0.8189024707944106
0.02517505835278426,15.683680670836424,0.8254568442237067
0.025341780593531177,15.798800227683085,0.831515712939387
0.02550850283427809,15.910023714864739,0.8373695448323687
0.025675225075025006,16.01972603421782,0.8431433266987295
0.025841947315771923,16.107539412010418,0.8477652235976958
0.02600866955651884,16.195352789803014,0.8523871204966621
0.026175391797265753,16.27865291517795,0.8567714388577952
0.02634211403801267,16.333345919512727,0.8596498724689989
0.026508836278759586,16.388038923847507,0.8625283060802027
0.026675558519506502,16.436047486515704,0.8650549560660398
0.026842280760253415,16.458535195752116,0.8662385143187907
0.027009003001000332,16.481022904988528,0.8674220725715417
0.02717572524174725,16.496458893748624,0.8682344932972762
0.02734244748249416,16.483931713310987,0.8675752521185555
0.027509169723241078,16.46125401250506,0.8663819498896895
0.027675891963987995,16.43859736770463,0.865189255137518
0.02784261420473491,16.415963117986806,0.8639980446919696
0.028009336445481824,16.39335999825675,0.8628086333705228
0.02817605868622874,16.37079676296245,0.8616207836586297
0.028342780926975657,16.348261756300825,0.8604346243457578
0.028509503167722574,16.32575671859258,0.8592504216700507
0.028676225408469487,16.303285992139713,0.8580678527966388
0.028842947649216404,16.28085382958245,0.8568870013761217
0.02900966988996332,16.258457747069777,0.8557082925418317
0.029176392130710237,16.23608091230869,0.8545307267207481
0.02934311437145715,16.213746246637537,0.8533553371769781
0.029509836612204066,16.19153624774902,0.8521863814806349
0.029676558852950983,16.1693262488605,0.8510174257842916
0.029843281093697896,16.147116249971983,0.8498484700879484
0.030010003334444812,16.124906251083466,0.8486795143916052
0.03017672557519173,16.102696252194946,0.8475105586952619
0.030343447815938646,16.080486253306425,0.8463416029989187
0.03051017005668556,16.05827625441791,0.8451726473025755
0.030676892297432475,16.03606625552939,0.8440036916062322
0.030843614538179392,16.0139401692908,0.8428390749374203
0.03101033677892631,15.991909999234117,0.8416794179851028
0.03117705901967322,15.969879829177433,0.8405197610327854
0.03134378126042014,15.947895576436615,0.8393626387163039
0.031510503501167055,15.925950768167192,0.8382076937346433
0.03167722574191397,15.904005959897768,0.8370527487529829
0.03184394798266089,15.882104833877575,0.8359001334912812
0.0320106702234078,15.860231729509454,0.8347490127176901
0.032177392464154714,15.838358625141332,0.8335978919440988
0.03234411470490163,15.816523621720766,0.832448659431854
0.03251083694564855,15.794745783914328,0.8313026477111727
0.03267755918639546,15.77686219915191,0.830361140215822
0.03284428142714238,15.775045064289218,0.8302655359669278
0.033011003667889297,15.792823477818564,0.8312012778967751
0.03317772590863621,15.829272155862904,0.8331195660993561
0.03334444814938312,15.871129084129914,0.8353224440800487
0.03351117039013004,15.934583301801105,0.8386621535154168
0.033677892630876956,16.00078307505886,0.8421463826584644
0.03384461487162387,16.06698284831661,0.8456306118015121
0.03401133711237079,16.152269463384847,0.8501194529065191
0.034178059353117705,16.23838243437518,0.8546517882182898
0.03434478159386462,16.324826896590245,0.8592015626667676
0.03451150383461154,16.42206703469541,0.8643192775421543
0.03467822607535845,16.519307172800566,0.8694369924175408
0.034844948316105365,16.616566489613504,0.87455585031983
0.03501167055685228,16.713839532247178,0.8796755262638009
0.0351783927975992,16.811112574880852,0.8847952022077717
0.035345115038346114,16.899261866555072,0.8894347648945089
0.03551183727909303,16.985593797683322,0.8939786937903662
0.03567855951983995,17.066474485319684,0.8982356461368275
0.03584528176058686,17.131707963145626,0.9016688630758071
0.036012004001333774,17.196941440971568,0.9051020800147868
0.03617872624208069,17.252174934573638,0.9080090258344475
0.03634544848282761,17.287074247678007,0.9098458407727603
0.03651217072357452,17.321973560782375,0.9116826557110731
0.03667889296432144,17.345696098384213,0.912931211381174
0.036845615205068356,17.352719666240166,0.913300862064735
0.03701233744581527,17.359743234096115,0.9136705127482962
0.03717905968656218,17.35495212684816,0.9134182945780734
0.0373457819273091,17.331064160727603,0.9121612242988758
0.037512504168056016,17.307201248825315,0.9109053325200234
0.03767922640880293,17.283369413055965,0.9096512314045239
0.03784594864954985,17.25957758344435,0.908398994221504
0.038012670890296765,17.235815670727114,0.9071483079243446
0.03817939313104368,17.21208367490425,0.9058993468897534
0.03834611537179059,17.188392521098486,0.9046520271249608
0.03851283761253751,17.164732293511324,0.9034069356669182
0.038679559853284425,17.141113757400127,0.9021637396493352
0.03884628209403134,17.117506326782465,0.9009211550681594
0.03901300433477826,17.093970932952885,0.8996825366245326
0.039179726575525174,17.070435539123302,0.8984439181809056
0.03934644881627209,17.046900145293723,0.8972052997372788
0.03951317105701901,17.023524835540982,0.8959750443289659
0.03967989329776592,17.000154578715648,0.8947450528932551
0.03984661553851283,16.97678432189031,0.8935150614575442
0.04001333777925975,16.953414065064973,0.8922850700218334
0.04018006002000667,16.930043808239635,0.8910550785861225
0.04034678226075358,16.9066735514143,0.8898250871504116
0.0405135045015005,16.88334716253791,0.8885973751909566
0.040680226742247416,16.86012534193104,0.8873750968315034
0.040846948982994326,16.83690352132417,0.8861528184720503
0.04101367122374124,16.81371551840303,0.8849323311974338
0.04118039346448816,16.790585888526405,0.883714935532212
0.041347115705235075,16.76745625864978,0.8824975398669903
0.04151383794598199,16.744367018649612,0.8812823132877265
0.04168056018672891,16.72132957950323,0.880069868606166
0.041847282427475825,16.69829214035685,0.8788574239246054
0.04201400466822274,16.675292966598544,0.8776469968725982
0.04218072690896965,16.652330645824954,0.8764385129779667
0.04234744914971657,16.629368325051363,0.8752300290833351
0.042514171390463484,16.606439329066017,0.8740233018642816
0.0426808936312104,16.583594672399833,0.8728208570633055
0.04284761587195732,16.5653125308498,0.8718585455276967
0.043014338112704234,16.56253372913179,0.8717122054686579
0.04318106035345115,16.5782449728173,0.8725389349426552
0.04334778259419806,16.610485614084816,0.8742358217748079
0.04351450483494498,16.647264938009148,0.8761716366936837
0.04368122707569189,16.705115549984193,0.8792164443039502
0.04384794931643881,16.76373519653304,0.8823017265980483
0.044014671557185726,16.822957711327625,0.8854187413931887
0.04418139379793264,16.89828778135097,0.8893835915432388
0.04434811603867956,16.97361785137431,0.8933484416932888
0.044514838279426476,17.049880591837198,0.8973623588530767
0.044681560520173386,17.133897458636284,0.9017842140972248
0.0448482827609203,17.21766326548786,0.906192869256782
0.04501500500166722,17.30068490032104,0.9105623977707306
0.045181727242414135,17.383706535154225,0.9149319262846791
0.04534844948316105,17.458793427577202,0.9188838679378831
0.04551517172390797,17.530840959967918,0.9226758552095925
0.045681893964654885,17.60152338230058,0.9263959863905767
0.045848616205401795,17.652726796772072,0.9290907897250215
0.04601533844614871,17.703930211243563,0.9317855930594663
0.04618206068689563,17.751641620548913,0.9342966329496526
0.046348782927642544,17.77731503168596,0.9356479441867316
0.04651550516838946,17.802988442823004,0.9369992554238107
0.04668222740913638,17.823788755239402,0.9380940741888335
0.046848949649883294,17.826041633373816,0.9382126604697637
0.04701567189063021,17.815563117425363,0.9376610146852851
0.04718239413137712,17.791311569344558,0.9363846582874206
0.04734911637212404,17.766809698528423,0.9350953987759367
0.04751583861287095,17.742353365334967,0.93380806588709
0.04768256085361787,17.71792831496157,0.932522399638795
0.047849283094364786,17.6935322076894,0.9312385861732989
0.0480160053351117,17.669172226701715,0.929956446270593
0.04818272757585862,17.644854654697326,0.9286763734470763
0.04834944981660553,17.62056534598167,0.9273980264641793
0.048516172057352445,17.596310473650636,0.9261215945954003
0.04868289429809936,17.57208589949863,0.9248467516479882
0.04884961653884628,17.547916788501666,0.9235744395789386
0.049016338779593195,17.52377173600263,0.9223035334515792
0.04918306102034011,17.499668683992617,0.9210350817683297
0.04934978326108703,17.4755656319826,0.9197666300850802
0.049516505501833945,17.451550666836628,0.918502723977889
0.049683227742580854,17.427582784209086,0.917241247485725
0.04984994998332777,17.40361490158154,0.915979770993561
0.05001667222407469,17.379647018954,0.9147182945013969
0.050183394464821604,17.355679136326458,0.9134568180092327
0.05035011670556852,17.331711253698913,0.9121953415170687
0.05051683894631544,17.307858629527026,0.9109399127038719
0.050683561187062354,17.28403586193783,0.9096860504831317
0.05085028342780926,17.260213094348636,0.9084321882623915
0.05101700566855618,17.23647307734719,0.9071826704475081
0.051183727909303096,17.212745914959726,0.9059338274998588
0.05135045015005001,17.189018752572263,0.9046849845522097
0.05151717239079693,17.165377957585147,0.9034408438296905
0.051683894631543846,17.14174298592793,0.9021970201551323
0.05185061687229076,17.118108707660372,0.9009532308727013
0.05201733911303768,17.094559097790416,0.8997136411427913
0.05218406135378459,17.07100948792046,0.8984740514128814
0.052350783594531505,17.047464328012847,0.8972347146350996
0.05251750583527842,17.023970754529817,0.8959983102182851
0.05268422807602534,17.00052772893821,0.8947644773603612
0.052850950316772255,16.978220522836814,0.8935906342704775
0.05301767255751917,16.966142211234473,0.8929545960403649
0.05318439479826609,16.973087302048263,0.8933204649781249
0.053351117039013005,16.993612318445766,0.8944006588507022
0.053517839279759914,17.026571285753022,0.8961353113183618
0.05368456152050683,17.07186001552763,0.898518912307905
0.05385128376125375,17.125436487685015,0.901338719443617
0.054018006002000664,17.179012959842403,0.9041585265793289
0.05418472824274758,17.243028912299007,0.9075278233479532
0.0543514504834945,17.312202690224982,0.9111686060088402
0.054518172724241414,17.381376468150957,0.9148093886697273
0.05468489496498832,17.456321805429422,0.9187537851505709
0.05485161720573524,17.533288646936164,0.9228045231906575
0.055018339446482156,17.60875474507253,0.9267764748025314
0.05518506168722907,17.683730953148526,0.9307227080345439
0.05535178392797599,17.75237070883496,0.9343353846215984
0.055518506168722906,17.815826163330545,0.9376751548557982
0.05568522840946982,17.87928161782613,0.9410149250899981
0.05585195065021674,17.926337668939183,0.9434915781609807
0.05601867289096365,17.968537122090233,0.9457126235761191
0.056185395131710565,18.010736575241285,0.9479336689912574
0.05635211737245748,18.03245225218903,0.9490765966883843
0.0565188396132044,18.050347497270725,0.9500184445043229
0.056685561853951315,18.06824274235242,0.9509602923202617
0.05685228409469823,18.066615981535897,0.9508743864190846
0.05701900633544515,18.047388083793216,0.949862642483836
