time,I(L1),I(L2)
0.0,-2.220446e-13,0.0
0.00016672224074691563,1.4616344800574697,0.9995705994951414
0.00033344448149383126,2.500231620436155,0.9998928621786692
0.0005001667222407468,3.5148890585347505,1.0002113366257641
0.0006668889629876625,4.486772717874051,1.000524666421286
0.0008336112037345782,5.448460995748206,1.0008367918525414
0.0010003334444814937,6.343173226165441,1.0011393899470753
0.0011670556852284093,7.225350079783315,1.001440204885388
0.001333777925975325,8.107526933401187,1.001741019823701
0.0015005001667222407,8.887294926628224,1.0020237412135498
0.0016672224074691564,9.657382193050365,1.0023047522172177
0.0018339446482160719,10.427469459472505,1.0025857632208854
0.0020006668889629873,11.063194105896505,1.0028408791877483
0.002167389129709903,11.696861968517378,1.0030955987609393
0.0023341113704568187,12.32219602325702,1.0033484565668238
0.0025008336112037344,12.80760753376052,1.003570055766557
0.00266755585195065,13.293019044264021,1.0037916549662902
0.0028342780926975657,13.758494606774942,1.0040084217894
0.0030010003334444814,14.087547224314122,1.0041921203555888
0.003167722574191397,14.416599841853301,1.0043758189217775
0.003334444814938313,14.713689475966188,1.0045511008178776
0.003501167055685228,14.881954631017871,1.004692459937584
0.0036678892964321437,15.050219786069555,1.0048338190572905
0.0038346115371790594,15.174857613209213,1.0049629132070923
0.004001333777925975,15.18158753651698,1.005058859855975
0.00416805601867289,15.18831745982475,1.0051548065048581
0.004334778259419806,15.141986108479202,1.0052347845343015
0.004501500500166722,14.993279046125084,1.0052839529237647
0.004668222740913637,14.844571983770965,1.005333121313228
0.004834944981660553,14.63592062258317,1.0053629238865027
0.005001667222407469,14.341949498155792,1.0053651627567353
0.005168389463154384,14.047978373728416,1.0053674016269676
0.0053351117039013,13.654213769497359,1.0053356071791708
0.005501833944648216,13.224049391394185,1.0052913990437984
0.0056685561853951315,12.777557689330205,1.0052411999114963
0.005835278426142047,12.223139710003762,1.0051513993112962
0.006002000666888963,11.668721730677321,1.0050615987110962
0.0061687229076358785,11.091612778091255,1.0049627317706962
0.006335445148382794,10.425246912135936,1.0048282015939705
0.00650216738912971,9.758881046180617,1.004693671417245
0.006668889629876626,9.065956666566581,1.0045473539214975
0.00683561187062354,8.302655320784657,1.0043698014039917
0.007002334111370456,7.53935397500273,1.0041922488864858
0.007169056352117372,6.75045081820769,1.004001374618393
0.0073357785928642874,5.912999443749537,1.0037852385730446
0.007502500833611203,5.075548069291384,1.0035691025276963
0.007669223074358119,4.221422003771663,1.0033400232752288
0.007835945315105034,3.343941072794671,1.0030928155393166
0.00800266755585195,2.466460141817683,1.0028456078034047
0.008169389796598866,1.5931846411449886,1.0025879130535955
0.00833611203734578,0.7243240707473839,1.0023192088631823
0.008502834278092697,0.014720534132551024,1.0020415474919753
0.008669556518839612,4.126801219453495e-08,1.00175
0.008836278759586529,-1.7662545614008312e-08,1.0014517498867614
0.009003001000333443,-1.6839254346950334e-08,1.0011471234506357
0.00916972324108036,-1.617303602321562e-08,1.0008385137473148
0.009336445481827275,-1.5687653865796044e-08,1.000524611691304
0.009503167722574191,-1.5361636756194158e-08,1.0002065635968103
0.009669889963321106,-1.5208795706784536e-08,0.9998864564102965
0.009836612204068023,-1.5137755436363374e-08,0.9994347026062759
0.010003334444814937,-1.5134947317857725e-08,0.13069134589804418
0.010170056685561854,-1.5198498944766783e-08,-0.9995772753641811
0.010336778926308769,-1.5337080836333554e-08,-0.9998994306191186
0.010503501167055685,-1.5574669969741776e-08,-1.0002190309107664
0.0106702234078026,-1.597703643234421e-08,-1.000535519503133
0.010836945648549515,-1.648164617055431e-08,-1.000850023896108
0.011003667889296432,-1.7418204716129233e-08,-1.0011586153426713
0.011170390130043346,-1.913214410489317e-08,-1.0014632598745645
0.011337112370790263,-1.2077352316232049e-05,-1.0017615011957994
0.011503834611537178,-0.2100783191554454,-1.0020532169727767
0.011670556852284094,-1.0376839765047283,-1.0023353039120726
0.01183727909303101,-1.9039666016545682,-1.0026069973657086
0.012004001333777926,-2.721649266174192,-1.0028653601170125
0.01217072357452484,-3.5113472751528527,-1.0031168495959406
0.012337445815271757,-4.223063449136851,-1.003350932153832
0.012504168056018672,-4.9002702620744945,-1.003577311613652
0.012670890296765588,-5.577477075012144,-1.003803691073472
0.012837612537512503,-6.141429193587172,-1.0040039663804576
0.01300433477825942,-6.670496770779572,-1.0041962011253724
0.013171057019006335,-7.199564347971967,-1.0043884358702875
0.013337779259753251,-7.587534586719093,-1.0045458538921923
0.013504501500500166,-7.947785913161238,-1.0046964320849232
0.01367122374124708,-8.308037239603383,-1.004847010277654
0.013837945981993997,-8.513278925899453,-1.0049567048465964
0.014004668222740912,-8.70264414897381,-1.0050622120156527
0.014171390463487829,-8.89200937204817,-1.0051677191847088
0.014338112704234744,-8.93164226349183,-1.0052318021859112
0.01450483494498166,-8.967966776996333,-1.0052949699084854
0.014671557185728575,-8.997588961211243,-1.0053561317605406
0.014838279426475491,-8.898980186157734,-1.0053789167006737
0.015005001667222406,-8.768402261628454,-1.005391738501774
0.015171723907969323,-8.542038129544808,-1.0053747086703195
0.015338446148716238,-8.278522219707847,-1.0053451891776037
0.015505168389463154,-7.933257626368362,-1.0052881874639223
0.01567189063021007,-7.587993033028879,-1.005231185750241
0.015838612870956986,-7.189967309598094,-1.0051552967182986
0.0160053351117039,-6.723511579021242,-1.005054911256478
0.016172057352450815,-6.25705584844438,-1.0049545257946573
0.01633877959319773,-5.731811186404717,-1.004831478372298
0.016505501833944648,-5.149319422483407,-1.004686363333952
0.01667222407469156,-4.566827658562109,-1.004541248295606
0.016838946315438478,-3.9339236942464146,-1.0043716639017308
0.017005668556185394,-3.2642034514988283,-1.0041842094169027
0.01717239079693231,-2.5944832087512424,-1.0039967549320743
0.017339113037679224,-1.9034901945272233,-1.0037895713758525
0.01750583527842614,-1.201003385857663,-1.0035717280947587
0.017672557519173057,-0.4985165771881026,-1.003353884813665
0.017839279759919974,-0.0027735310503048533,-1.0031176423927775
0.018006002000666887,-5.623540935045555e-08,-1.002861
0.018172724241413803,1.601597263376677e-08,-1.0025953864441404
0.01833944648216072,1.4655728702492082e-08,-1.0023182833356985
0.018506168722907636,1.4118095261069726e-08,-1.0020345482728468
0.01867289096365455,1.3767485848499786e-08,-1.0017433170774355
0.018839613204401466,1.3578076108183728e-08,-1.001444312840686
0.019006335445148383,1.3517492876003473e-08,-1.0011371606700363
0.019173057685895296,1.3433446416285653e-08,-1.0008268179184767
0.019339779926642212,1.3380233673314233e-08,-1.0005125104637276
0.01950650216738913,1.334563317018737e-08,-1.0001958097844674
0.019673224408136045,1.3311109513821759e-08,-0.9998789555275267
0.01983994664888296,1.3307579093655333e-08,-0.9923168755182007
0.020006668889629875,1.3320364081883591e-08,-0.09261239609753613
0.02017339113037679,1.3346664373041452e-08,0.9995838553366247
0.020340113371123708,1.3386832726693506e-08,0.9999059448366471
0.02050683561187062,1.3447740728413134e-08,1.000225173437944
0.020673557852617538,1.3529635090807723e-08,1.0005424487051984
0.020840280093364454,1.3653413010224139e-08,1.000855101894358
0.02100700233411137,1.3836840937974877e-08,1.001162667886493
0.021173724574858284,1.4079218721148406e-08,1.0014653891028427
0.0213404468156052,1.4523715345777628e-08,1.0017622463945337
0.021507169056352117,2.146286955095704e-08,1.0020523421706458
0.02167389129709903,1.1354326121875122e-07,1.0023337631807614
0.021840613537845947,3.3804631317726764e-07,1.0026149190806877
0.022007335778592863,0.00017611724962922633,1.0028824924758095
0.02217405801933978,0.27466887028583375,1.003137527574912
0.022340780260086693,1.0007886759395608,1.0033813337372528
0.02250750250083361,1.7283954642770434,1.0036095819354725
0.022674224741580526,2.4018633783420404,1.0038226241166275
0.022840946982327442,3.033301295712458,1.0040252577624231
0.023007669223074356,3.606148129537248,1.0042132639135464
0.023174391463821272,4.111136512331516,1.0043843289352203
0.02334111370456819,4.616124895125783,1.004555393956894
0.023507835945315105,5.036342853275633,1.0047049177420988
0.02367455818606202,5.382776496490032,1.0048356920001849
0.023841280426808935,5.729210139704438,1.004966466258271
0.02400800266755585,5.976816169526417,1.0050707580461384
0.024174724908302764,6.160150070159959,1.0051578270691461
0.02434144714904968,6.343483970793505,1.0052448960921538
0.024508169389796598,6.4208248501244,1.0053023498761047
0.024674891630543514,6.447647417146956,1.0053456884675893
0.024841613871290427,6.4103940266489845,1.0053696713070839
0.025008336112037344,6.291268565855865,1.005368922631844
0.02517505835278426,6.172143105062745,1.005368173956604
0.025341780593531177,5.948323861681022,1.0053338105535812
0.02550850283427809,5.6928157643855375,1.0052892725998666
0.025675225075025006,5.415601879444382,1.0052373510751658
0.025841947315771923,5.027033316590095,1.0051475504749656
0.02600866955651884,4.638464753735808,1.0050577498747655
0.026175391797265753,4.222342632225654,1.0049573838914576
0.02634211403801267,3.7162329369939076,1.004822512267583
0.026508836278759586,3.210123241762161,1.0046876406437084
0.026675558519506502,2.6787711054147927,1.0045413913569523
0.026842280760253415,2.09009027046982,1.0043693019938313
0.027009003001000332,1.5014094355248349,1.0041972126307102
0.02717572524174725,0.903181049847473,1.004015409016721
0.02734244748249416,0.29665120473456996,1.0038151823969823
0.027509169723241078,0.0005877447120504364,1.003593522858762
0.027675891963987995,1.5837347366008204e-08,1.0033592450942876
0.02784261420473491,-1.4088569931630452e-08,1.0031125174280129
0.028009336445481824,-1.3509674418571606e-08,1.0028548381578626
0.02817605868622874,-1.318361208938287e-08,1.0025857902994109
0.028342780926975657,-1.2989885716867926e-08,1.0023058888693783
0.028509503167722574,-1.2860546315181823e-08,1.002019778041027
0.028676225408469487,-1.2782706935946087e-08,1.0017248296704482
0.028842947649216404,-1.2736929498583037e-08,1.001424379384497
0.02900966988996332,-1.2691152061219988e-08,1.0011239290985459
0.029176392130710237,-1.2679198394471845e-08,1.0008141393537942
0.02934311437145715,-1.2674312285768945e-08,1.0005023981067118
0.029509836612204066,-1.2669426177066045e-08,1.0001906568596295
0.029676558852950983,-1.2676974173677154e-08,0.9998730039528824
0.029843281093697896,-1.268962068256195e-08,0.9971644993664573
0.030010003334444812,-1.270512115302797e-08,0.05438786392938427
0.03017672557519173,-1.2722999645936222e-08,-0.9995904974781021
0.030343447815938646,-1.2744011014568148e-08,-0.9999123029497541
0.03051017005668556,-1.2770277575462429e-08,-1.00023177794013
0.030676892297432475,-1.2794070773972284e-08,-1.0005501112438984
0.030843614538179392,-1.2835867879579104e-08,-1.0008629665871671
0.03101033677892631,-1.2911290806763339e-08,-1.0011711871978106
0.03117705901967322,-1.3016311241223736e-08,-1.0014733859351526
0.03134378126042014,-1.3150945315964489e-08,-1.0017703694494027
0.031510503501167055,-1.3322064698970455e-08,-1.0020613376825547
0.03167722574191397,-1.3635429785588614e-08,-1.00234270077563
0.03184394798266089,-1.4149234623380919e-08,-1.002615872200527
0.0320106702234078,-1.491554455370058e-08,-1.0028852350879134
0.032177392464154714,-3.6671179293617485e-08,-1.0031429537608398
0.03234411470490163,-0.0004186890291306227,-1.0033877867514958
0.03251083694564855,-0.2698471795905782,-1.0036212888512626
0.03267755918639546,-0.9238698283011829,-1.003840903998722
0.03284428142714238,-1.5734389986879744,-1.0040448818283163
0.033011003667889297,-2.1602931786449364,-1.0042308123038413
0.03317772590863621,-2.72084996005574,-1.0044096701530894
0.03334444814938312,-3.1662885942671277,-1.0045585411100748
0.03351117039013004,-3.611727228478534,-1.0047074120670605
0.033677892630876956,-4.038202592735242,-1.004851334866162
0.03384461487162387,-4.329231314309102,-1.0049599150595598
0.03401133711237079,-4.6202600358829615,-1.0050684952529576
0.034178059353117705,-4.880776282933115,-1.0051687247977996
0.03434478159386462,-5.014605468661692,-1.005234282650417
0.03451150383461154,-5.148434654390269,-1.0052998405030347
0.03467822607535845,-5.244937184693759,-1.0053546346432967
0.034844948316105365,-5.238117712354922,-1.005379634302811
0.03501167055685228,-5.1747045009006,-1.0053876910447923
0.0351783927975992,-5.034837330513911,-1.0053728591573687
0.035345115038346114,-4.845159524083634,-1.0053416411527991
0.03551183727909303,-4.581599211782005,-1.0052861181504944
0.03567855951983995,-4.318038899480375,-1.0052305951481895
0.03584528176058686,-3.985164858554925,-1.005150843292313
0.036012004001333774,-3.5971695854638925,-1.0050518236190886
0.03617872624208069,-3.20917431237286,-1.0049528039458642
0.03634544848282761,-2.754431217988958,-1.004826323537805
0.03651217072357452,-2.2602032006498423,-1.0046835986295022
0.03667889296432144,-1.7659751833107262,-1.0045408737211994
0.036845615205068356,-1.2370354735017164,-1.0043752970864714
0.03701233744581527,-0.6931913898090387,-1.0041999084647646
0.03717905968656218,-0.16422802343175272,-1.004020722554345
0.0373457819273091,-8.983562437621694e-05,-1.0038118744032545
0.037512504168056016,6.2289992681598525e-09,-1.003588898587348
0.03767922640880293,1.3065033449670251e-08,-1.0033533428070838
0.03784594864954985,1.2969904553323514e-08,-1.00310784383923
0.038012670890296765,1.2790607840929753e-08,-1.0028504538788061
0.03817939313104368,1.2534607812762676e-08,-1.0025844625557065
0.03834611537179059,1.2365746149905669e-08,-1.0023064456246704
0.03851283761253751,1.232123805152277e-08,-1.0020230078279226
0.038679559853284425,1.2309498317635216e-08,-1.0017298053562016
0.03884628209403134,1.230755273513605e-08,-1.0014317189258737
0.03901300433477826,1.2317075515685986e-08,-1.001127649700846
0.039179726575525174,1.2334391589182756e-08,-1.0008165861150977
0.03934644881627209,1.2352687443049296e-08,-1.0005034831942616
0.03951317105701901,1.2372262844437879e-08,-1.000186253072499
0.03967989329776592,1.2391458601092906e-08,-0.9998663165793209
0.03984661553851283,1.2409475526551495e-08,-0.9985585867221624
0.04001333777925975,1.2425584973491993e-08,-0.018285477434830777
0.04018006002000667,1.2440124284108424e-08,0.9995970564433004
0.04034678226075358,1.2453737113708585e-08,0.9999185409562549
0.0405135045015005,1.2467032751059324e-08,1.0002390059122725
0.040680226742247416,1.2483829171305862e-08,1.00055523590069
0.040846948982994326,1.2504903707800733e-08,1.000868798414739
0.04101367122374124,1.251471963053244e-08,1.0011780714839063
0.04118039346448816,1.253759096846907e-08,1.001482537976483
0.041347115705235075,1.2615989074717643e-08,1.0017793516833706
0.04151383794598199,1.2749913949278152e-08,1.0020687945391216
0.04168056018672891,1.2939365592150615e-08,1.0023504227182376
0.041847282427475825,1.3184344003335012e-08,1.002624841937163
0.04201400466822274,1.3486116564884062e-08,1.0028922351596767
0.04218072690896965,1.4223132336434959e-08,1.0031461103780763
0.04234744914971657,2.819241816018873e-08,1.0033920827595997
0.042514171390463484,0.00025893872782722905,1.0036255790468984
0.0426808936312104,0.21767841027081036,1.0038468852058469
0.04284761587195732,0.8148100951887094,1.004053525158498
0.043014338112704234,1.417014259814421,1.0042435002330892
0.04318106035345115,1.9661403821466557,1.0044172562087395
0.04334778259419806,2.472467248264262,1.0045786211415848
0.04351450483494498,2.8915826841629633,1.0047170976389053
0.04368122707569189,3.2722433310452597,1.0048454817669479
0.04384794931643881,3.652903977927556,1.0049738658949905
0.044014671557185726,3.920906601723329,1.0050722001489674
0.04418139379793264,4.154356066211493,1.0051613178548693
0.04434811603867956,4.387805530699657,1.0052504355607712
0.044514838279426476,4.487935906681074,1.005302251337104
0.044681560520173386,4.562021578664295,1.0053467799520475
0.0448482827609203,4.558091678265742,1.005368
0.04501500500166722,4.4831366398731145,1.005368
0.045181727242414135,4.408181601480486,1.005368
0.04534844948316105,4.2183847352570005,1.0053317786557303
0.04551517172390797,4.004097991807269,1.0052878331547586
0.045681893964654885,3.7589697804608746,1.0052334144586452
0.045848616205401795,3.4106544220080695,1.005143955305594
0.04601533844614871,3.0623390635552497,1.0050544961525432
0.04618206068689563,2.68332046302784,1.0049514525870225
0.046348782927642544,2.2331363963389412,1.004816922410297
0.04651550516838946,1.7829523296500427,1.0046823922335713
0.04668222740913638,1.31826316639864,1.0045353911978885
0.046848949649883294,0.82915901082678,1.0043673992005562
0.04701567189063021,0.3400548552549201,1.0041994072032236
0.04718239413137712,0.0011568482648108358,1.0040187021667533
0.04734911637212404,1.6128075691384255e-07,1.003808
0.04751583861287095,-1.2352437418370524e-08,1.0035842462575488
0.04768256085361787,-1.2694881381158697e-08,1.0033483031824562
0.047849283094364786,-1.2766043143910251e-08,1.0031031133843684
0.0480160053351117,-1.2525849772487188e-08,1.0028454445950623
0.04818272757585862,-1.2119767668143568e-08,1.0025772821545376
0.04834944981660553,-1.2092255677762553e-08,1.0022996568516527
0.048516172057352445,-1.208992703189051e-08,1.0020125454966184
0.04868289429809936,-1.2099413458977414e-08,1.0017209836446221
0.04884961653884628,-1.2117402675113384e-08,1.0014226204709444
0.049016338779593195,-1.214187425759618e-08,1.0011187894479578
0.04918306102034011,-1.2168669832044205e-08,1.000806704845718
0.04934978326108703,-1.2195465406492228e-08,1.0004946202434781
0.049516505501833945,-1.221980974809937e-08,1.0001762067474744
0.049683227742580854,-1.2243989646471912e-08,0.999857368671747
0.04984994998332777,-1.2265527100662539e-08,0.9813215678116282
0.05001667222407469,-1.2281834353229515e-08,-0.01999667329665092
0.050183394464821604,-1.2294714892774763e-08,-0.9996034755091356
0.05035011670556852,-1.230478180870496e-08,-0.9999250722885858
0.05051683894631544,-1.2311098671791288e-08,-1.0002450722656908
0.050683561187062354,-1.2318271605904556e-08,-1.0005626853143712
0.05085028342780926,-1.2331110544393634e-08,-1.000874810815525
0.05101700566855618,-1.2348746771079642e-08,-1.0011825562614927
0.051183727909303096,-1.2371803797814663e-08,-1.001486766326704
0.05135045015005001,-1.2415956240168851e-08,-1.0017824798431443
0.05151717239079693,-1.2482359704995499e-08,-1.0020720212900422
0.051683894631543846,-1.2572921779634876e-08,-1.002356585057866
0.05185061687229076,-1.273890785248072e-08,-1.0026301990388935
0.05201733911303768,-1.3018974343341312e-08,-1.0028940915673612
0.05218406135378459,-1.3491374315194702e-08,-1.0031486689143574
0.052350783594531505,-1.4713279606432076e-08,-1.0033966479987677
0.05251750583527842,-7.956345311429777e-07,-1.0036299411921108
0.05268422807602534,-0.011233053174161074,-1.0038510597335943
0.052850950316772255,-0.420757792897287,-1.0040590453914677
0.05301767255751917,-1.01200537760344,-1.0042508611342456
0.05318439479826609,-1.5665429131222375,-1.0044254838062845
0.053351117039013005,-2.075549409978424,-1.0045868903850046
0.053517839279759914,-2.4854658693740634,-1.0047212761689768
0.05368456152050683,-2.880472864693438,-1.0048515963013565
0.05385128376125375,-3.2722846101777745,-1.0049810554947494
0.054018006002000664,-3.5245126435222236,-1.0050729047778437
0.05418472824274758,-3.776740676866673,-1.005164754060938
0.0543514504834945,-4.0138659951486035,-1.0052523753909017
0.054518172724241414,-4.104857473725386,-1.005299087055119
0.05468489496498832,-4.195848952302164,-1.0053457987193366
0.05485161720573524,-4.190705954804995,-1.0053643761075675
0.055018339446482156,-4.1295272198748565,-1.005366554333225
