time,V(n001),V(n005)
0.0,-2.299191,-2.299191
0.00016672224074691563,-2.296075612356721,-1.6722148157260621
0.00033344448149383126,-2.2676837747621073,-0.41816976272711365
0.0005001667222407468,-2.205576276319381,0.8250807792837862
0.0006668889629876625,-2.106343372986152,2.0475805035918584
0.0008336112037345782,-1.998626161347255,3.2650722842027324
0.0010003334444814937,-1.8473430138057794,4.444247968806147
0.0011670556852284093,-1.6879059747927752,5.616252332927522
0.001333777925975325,-1.5284689357797707,6.788256697048897
0.0015005001667222407,-1.3168822658387422,7.89177698023399
0.0016672224074691564,-1.1003658825109663,8.988823451724487
0.0018339446482160719,-0.8838494991831906,10.085869923214982
0.0020006668889629873,-0.6145925968676815,11.079984632302697
0.002167389129709903,-0.3445283580680816,12.07252369198926
0.0023341113704568187,-0.07206482096977866,13.057877673416172
0.0025008336112037344,0.24068233282815407,13.922595992855985
0.00266755585195065,0.5534294866260867,14.787314312295798
0.0028342780926975657,0.8701373168181441,15.633146310773585
0.0030010003334444814,1.2139483044806982,16.349738028012666
0.003167722574191397,1.5577592921432526,17.066329745251746
0.003334444814938313,1.9053404049946583,17.75013038732998
0.003501167055685228,2.2681167331040273,18.301768986863156
0.0036678892964321437,2.630893061213397,18.853407586396333
0.0038346115371790594,2.9954705877602263,19.35699701360441
0.004001333777925975,3.3649160615848333,19.730727990596737
0.00416805601867289,3.7343615354094415,20.104458967589068
0.004334778259419806,4.102079484352919,20.415855214726495
0.004501500500166722,4.466464369981463,20.606983670878545
0.004668222740913637,4.830849255610006,20.798112127030596
0.004834944981660553,5.188732988510926,20.91427188066277
0.005001667222407469,5.537363517649399,20.923727375944672
0.005168389463154384,5.8859940467878715,20.933182871226578
0.0053351117039013,6.215380857869578,20.809338564027968
0.005501833944648216,6.537748503098934,20.6368730174755
0.0056685561853951315,6.855396532503878,20.4409940194372
0.005835278426142047,7.141847130703278,20.090348284192114
0.006002000666888963,7.4282977289026775,19.739702548947033
0.0061687229076358785,7.705522184004908,19.353741688405144
0.006335445148382794,7.946454804211644,18.82886571641448
0.00650216738912971,8.18738742441838,18.303989744423816
0.006668889629876626,8.413375408008255,17.733298521498938
0.00683561187062354,8.599761846154303,17.041202222732682
0.007002334111370456,8.786148284300353,16.349105923966427
0.007169056352117372,8.9514483954243,15.604885034009468
0.0073357785928642874,9.076762913597024,14.761821292762386
0.007502500833611203,9.202077431769748,13.918757551515304
0.007669223074358119,9.302780654955153,13.025105783059047
0.007835945315105034,9.369012865692065,12.060599534309462
0.00800266755585195,9.435245076428979,11.096093285559883
0.008169389796598866,9.478892278411575,10.091638655517695
0.00833611203734578,9.498829364734812,9.045245554202147
0.008502834278092697,9.49564854322126,7.96181876797594
0.008669556518839612,9.46957012966328,6.825288056867945
0.008836278759586529,9.4434570433599,5.660119030723628
0.009003001000333443,9.417344003669806,4.473711232979848
0.00916972324108036,9.391230139935546,3.2700699437898337
0.009336445481827275,9.365117452432841,2.046589336094941
0.009503167722574191,9.339005103657255,0.805623694466929
0.009669889963321106,9.312892312955267,-0.44280366769369206
0.009836612204068023,9.286779647136434,-1.6972502750214815
0.010003334444814937,9.260667632470145,-2.2972988691859104
0.010170056685561854,9.234554986513835,-1.6470735571733472
0.010336778926308769,9.208443741781936,-0.3925885536802687
0.010503501167055685,9.182331355714709,0.8539987903309254
0.0106702234078026,9.156219886627532,2.0875666681373986
0.010836945648549515,9.13010883692236,3.313858521288487
0.011003667889296432,9.103997419425117,4.518528005865533
0.011170390130043346,9.077886141328216,5.708209876872116
0.011337112370790263,9.051775718158371,6.87122466355696
0.011503834611537178,9.026972570075364,8.006176708364707
0.011670556852284094,9.019305024017669,9.107746494762823
0.01183727909303101,9.039773225855019,10.166151298681264
0.012004001333777926,9.087823849620419,11.173846294297434
0.01217072357452484,9.149507168677994,12.155281355170944
0.012337445815271757,9.239423928752876,13.068487712976687
0.012504168056018672,9.341834855061645,13.951500770662577
0.012670890296765588,9.444245781370416,14.834513828348477
0.012837612537512503,9.57802241355885,15.615321296441959
0.01300433477825942,9.721460263508835,16.364647551860436
0.013171057019006335,9.864898113458818,17.113973807278906
0.013337779259753251,10.036709309598242,17.72812841635524
0.013504501500500166,10.21409451800104,18.315728229626327
0.01367122374124708,10.39147972640384,18.903328042897414
0.013837945981993997,10.587912986799113,19.33172021119794
0.014004668222740912,10.78629719486847,19.74380594644302
0.014171390463487829,10.984681402937827,20.155891681688104
0.014338112704234744,11.191724598352161,20.404903162594778
0.01450483494498166,11.398959116524887,20.65031147203126
0.014671557185728575,11.606140224579946,20.88798527198211
0.014838279426475491,11.812299474363535,20.977680133871402
0.015005001667222406,12.015952128656464,21.02821717877626
0.015171723907969323,12.212094502574097,20.96142927614413
0.015338446148716238,12.402413335351932,20.84613684676697
0.015505168389463154,12.579918062041447,20.624115171978
0.01567189063021007,12.757422788730958,20.402093497189032
0.015838612870956986,12.922307072819116,20.106517609822678
0.0160053351117039,13.070822924769763,19.715543551803343
0.016172057352450815,13.219338776720415,19.324569493784
0.01633877959319773,13.347649155457942,18.844385157671542
0.016505501833944648,13.45628398039959,18.27733021935877
0.01667222407469156,13.564918805341236,17.710275281046005
0.016838946315438478,13.645946671907929,17.048671936970607
0.017005668556185394,13.706813040697526,16.318019426133656
0.01717239079693231,13.767679409487123,15.587366915296707
0.017339113037679224,13.802031236373441,14.779168070134844
0.01750583527842614,13.822057111665204,13.929070517617333
0.017672557519173057,13.842082986956969,13.078972965099823
0.017839279759919974,13.836176834147441,12.159952641210312
0.018006002000666887,13.81004,11.159939063721293
0.018172724241413803,13.78389279582184,10.121158282714628
0.01833944648216072,13.757758572846482,9.042632771727126
0.018506168722907636,13.731617112782892,7.93612554422805
0.01867289096365455,13.705475652719302,6.797854323884714
0.018839613204401466,13.679334192655713,5.6322031579655345
0.019006335445148383,13.653192461532331,4.433876867065737
0.019173057685895296,13.627050316660048,3.223053179993153
0.019339779926642212,13.600908785385512,1.9974809205431177
0.01950650216738913,13.57476762449864,0.7630059404541423
0.019673224408136045,13.548626443328523,-0.4715096650392071
0.01983994664888296,13.522478394755995,-1.7145541287007289
0.020006668889629875,13.496338277751248,-2.295589297952614
0.02017339113037679,13.470201975833291,-1.6219354842150597
0.020340113371123708,13.444062147469346,-0.3669555330257918
0.02050683561187062,13.417916236204299,0.8790754344307061
0.020673557852617538,13.391780324939251,2.115815633211497
0.020840280093364454,13.365641303213941,3.3344736126297474
0.02100700233411137,13.339501348507971,4.534104030872697
0.021173724574858284,13.3133608945522,5.715519512986374
0.0213404468156052,13.287221601382473,6.873782464961211
0.021507169056352117,13.261083364636189,8.005261867917714
0.02167389129709903,13.23494302350528,9.101311052445215
0.021840613537845947,13.20880307750037,10.196460032533583
0.022007335778592863,13.1826710092963,11.241311664953322
0.02217405801933978,13.158685122910835,12.237231934190232
0.022340780260086693,13.151652341007802,13.186204128282862
0.02250750250083361,13.168650891788772,14.077529348671181
0.022674224741580526,13.206749095353564,14.909074624956746
0.022840946982327442,13.259064971332405,15.698017904618863
0.023007669223074356,13.326192903033524,16.4304264254182
0.023174391463821272,13.410475717304948,17.0973580692995
0.02334111370456819,13.494758531576371,17.764289713180794
0.023507835945315105,13.594598499846942,18.347261649630887
0.02367455818606202,13.707979440160377,18.857154920721243
0.023841280426808935,13.821360380473816,19.36704819181161
0.02400800266755585,13.946706018074272,19.774425337954423
0.024174724908302764,14.07983284701725,20.115131546690662
0.02434144714904968,14.212959675960231,20.455837755426913
0.024508169389796598,14.351268685173354,20.67968449352563
0.024674891630543514,14.492047621161912,20.847833760589946
0.024841613871290427,14.631601391373069,20.94106709605385
0.025008336112037344,14.769589724834903,20.938577750881255
0.02517505835278426,14.907578058296739,20.936088405708663
0.025341780593531177,15.035314450017317,20.802678105930795
0.02550850283427809,15.159947770322011,20.629640476791458
0.025675225075025006,15.280734774882045,20.427553817884323
0.025841947315771923,15.38178947311479,20.076440300045043
0.02600866955651884,15.482844171347534,19.725326782205762
0.026175391797265753,15.576058074661761,19.333364451721895
0.02634211403801267,15.643664610173598,18.807993381365108
0.026508836278759586,15.711271145685437,18.282622311008318
0.026675558519506502,15.768181634266544,17.71272595736108
0.026842280760253415,15.800800080415259,17.041707191105672
0.027009003001000332,15.833418526563976,16.37068842485025
0.02717572524174725,15.855079593169092,15.661037967857888
0.02734244748249416,15.856005863694122,14.878986835374878
0.027509169723241078,15.833742032331099,14.015399049342388
0.027675891963987995,15.807591666028932,13.099882820441355
0.02784261420473491,15.781435917749214,12.137979877809087
0.028009336445481824,15.755276372829199,11.134523005274811
0.02817605868622874,15.729125703065646,10.085604261075941
0.028342780926975657,15.702971277359424,8.994350457725282
0.028509503167722574,15.67681566363717,7.876978961715416
0.028676225408469487,15.650660458781852,6.7260808760685755
0.028842947649216404,15.624505508471433,5.554310419556885
0.02900966988996332,15.598350558161012,4.382539963045195
0.029176392130710237,15.57219568948591,3.1746831524273635
0.02934311437145715,15.546040837868706,1.9592860115137443
0.029509836612204066,15.519885986251499,0.7438888706001001
0.029676558852950983,15.493730743704823,-0.4951491388450763
0.029843281093697896,15.467576017717226,-1.7448493277352457
0.030010003334444812,15.441424532699326,-2.2951748490393578
0.03017672557519173,15.415271265939328,-1.5967935755883715
0.030343447815938646,15.389113598661044,-0.34219485676322847
0.03051017005668556,15.362965618747857,0.9046230553136748
0.030676892297432475,15.33681345803086,2.143880581425911
0.030843614538179392,15.310658411578736,3.3670205682816836
0.03101033677892631,15.284504334081037,4.566820187349184
0.03117705901967322,15.25835423294566,5.746067706755178
0.03134378126042014,15.232197143629119,6.904763271401803
0.031510503501167055,15.206050175421657,8.041033526144881
0.03167722574191397,15.179895640943611,9.137032483644997
0.03184394798266089,15.153742292767623,10.202004704190248
0.0320106702234078,15.127589879533332,11.252443825728472
0.032177392464154714,15.101441421593652,12.256948684432105
0.03234411470490163,15.07528952357797,13.212010556928517
0.03251083694564855,15.051393597175235,14.121091647012237
0.03267755918639546,15.042744138437783,14.978363720248165
0.03284428142714238,15.054857678785227,15.774610657024166
0.033011003667889297,15.08712575756895,16.499934944280295
0.03317772590863621,15.126801849209544,17.197252948351853
0.03334444814938312,15.192052399392937,17.778225272459867
0.03351117039013004,15.25730294957633,18.359197596567906
0.033677892630876956,15.325494299017441,18.920760561707937
0.03384461487162387,15.414690537763692,19.34369065840684
0.03401133711237079,15.50388677650994,19.76662075510574
0.034178059353117705,15.596138954977748,20.157156962906274
0.03434478159386462,15.701079321766679,20.413194522092674
0.03451150383461154,15.80601968855561,20.66923208127907
0.03467822607535845,15.91224906489639,20.88345328302023
0.034844948316105365,16.02204648254186,20.981924767963964
0.03501167055685228,16.1299440968987,21.013190059767172
0.0351783927975992,16.235275217419314,20.953664751573406
0.035345115038346114,16.33515143860987,20.830975591295065
0.03551183727909303,16.42693658400232,20.614597531553326
0.03567855951983995,16.518721729394766,20.398219471811583
0.03584528176058686,16.59742291266049,20.08713521291749
0.036012004001333774,16.665719171413407,19.700736546695413
0.03617872624208069,16.734015430166327,19.31433788047334
0.03634544848282761,16.782185973803184,18.820992524289043
0.03651217072357452,16.818451075503752,18.264382454265697
0.03667889296432144,16.854716177204317,17.707772384242354
0.036845615205068356,16.870657235490718,17.06246268836145
0.03701233744581527,16.877871633671585,16.37906748604005
0.03717905968656218,16.88118702202125,15.680502971403042
0.0373457819273091,16.857981551600293,14.867543241001407
0.037512504168056016,16.831825173232776,13.997553395242235
0.03767922640880293,16.80566024509247,13.078349715086514
0.03784594864954985,16.779500359671736,12.11975313025914
0.038012670890296765,16.75333206402808,11.118362691339255
0.03817939313104368,16.727172973495883,10.077972980839226
0.03834611537179059,16.70100732038052,8.994334014957444
0.03851283761253751,16.67484480559856,7.888276307409252
0.038679559853284425,16.648683466008702,6.745279410740426
0.03884628209403134,16.62252256306764,5.583656200880519
0.03901300433477826,16.596362125711373,4.399081513292751
0.039179726575525174,16.570201497648846,3.1862488041535766
0.03934644881627209,16.544041243512204,1.964836286409164
0.03951317105701901,16.517881241492926,0.7268043459544209
0.03967989329776592,16.491721981785048,-0.5194245828551503
0.03984661553851283,16.465556775609787,-1.7717384625652581
0.04001333777925975,16.439397283777264,-2.2976939394324973
0.04018006002000667,16.413237776924642,-1.5716531929093638
0.04034678226075358,16.387081522588087,-0.31794957188859496
0.0405135045015005,16.36092018585844,0.9304246986265268
0.040680226742247416,16.334758673024226,2.1659060889913535
0.040846948982994326,16.308597160190015,3.3879466797973676
0.04101367122374124,16.28244691259463,4.594995663227476
0.04118039346448816,16.25628803214737,5.78171242087317
0.041347115705235075,16.230129151700112,6.939307063396019
0.04151383794598199,16.203970271252853,8.067778546475918
0.04168056018672891,16.17781139080559,9.16712691443306
0.041847282427475825,16.151652510358332,10.237352485827296
0.04201400466822274,16.125493586744184,11.278268928645154
0.04218072690896965,16.099331473443854,12.271084348214016
0.04234744914971657,16.073179242403974,13.230338025293356
0.042514171390463484,16.047018967028595,14.139823107589944
0.0426808936312104,16.022644156883246,15.00075323224005
0.04284761587195732,16.01136457254598,15.808583281793553
0.043014338112704234,16.020294169238696,16.5492444678947
0.04318106035345115,16.04533672085228,17.226539923942685
0.04334778259419806,16.08151820060445,17.8572255510918
0.04351450483494498,16.13432371320209,18.39785007766783
0.04368122707569189,16.194459385092717,18.89876328873819
0.04384794931643881,16.254595056983348,19.39967649980855
0.044014671557185726,16.32961978821556,19.782815108800328
0.04418139379793264,16.40921111865904,20.129831260851013
0.04434811603867956,16.488802449102522,20.476847412901698
0.044514838279426476,16.577690612017086,20.678283252965816
0.044681560520173386,16.66839496834057,20.851279083604993
0.0448482827609203,16.759269816643556,20.9341931820138
0.04501500500166722,16.850299880322147,20.93509714748275
0.045181727242414135,16.94132994400074,20.9360011129517
0.04534844948316105,17.023723088584163,20.79507786406955
0.04551517172390797,17.10427442089197,20.623910137783973
0.045681893964654885,17.18007916987704,20.4116861043481
0.045848616205401795,17.240003144535258,20.062098855265084
0.04601533844614871,17.299927119193477,19.712511606182055
0.04618206068689563,17.350857595323493,19.310427806758916
0.046348782927642544,17.38094250362626,18.78666495247415
0.04651550516838946,17.411027411929027,18.262902098189386
0.04668222740913638,17.431019832232888,17.690040963175605
0.046848949649883294,17.434024567144526,17.034537555373
0.04701567189063021,17.437029302056164,16.379034147570394
0.04718239413137712,17.428897694772537,15.672822212465235
0.04734911637212404,17.402732450009196,14.85064185011958
0.04751583861287095,17.376568319618116,13.976990851564603
0.04768256085361787,17.350403699580816,13.059120795220506
0.047849283094364786,17.324229079543525,12.100904683819909
0.0480160053351117,17.29806445950623,11.096377150640716
0.04818272757585862,17.271899859637397,10.050228522911182
0.04834944981660553,17.245735367677703,8.969637036380435
0.048516172057352445,17.21957072513557,7.850450648075668
0.04868289429809936,17.19340601194585,6.713156991288734
0.04884961653884628,17.16723975224674,5.548761065892682
0.049016338779593195,17.141072485226065,4.362658927465671
0.04918306102034011,17.114908680216367,3.1455308787885743
0.04934978326108703,17.088744875206665,1.9284028301114775
0.049516505501833945,17.06258122099814,0.6898834556060252
0.049683227742580854,17.03641757690625,-0.5500709758849549
0.04984994998332777,17.010256216593973,-1.7805985511030458
0.05001667222407469,16.984090100187842,-2.295009569980004
0.050183394464821604,16.957926597582336,-1.5465192377447705
0.05035011670556852,16.931762523825892,-0.29234821593374577
0.05051683894631544,16.905603657580528,0.9560508489500618
0.050683561187062354,16.87943895757314,2.1930824771133888
0.05085028342780926,16.853274257565758,3.411184916666965
0.05101700566855618,16.827109557558373,4.613223567116492
0.051183727909303096,16.800944857550988,5.7971593013290486
0.05135045015005001,16.774781516710814,6.950291309753451
0.05151717239079693,16.748619903742366,8.079500503066244
0.051683894631543846,16.722458598330952,9.190918981615164
0.05185061687229076,16.696296653687224,10.257475142938995
0.05201733911303768,16.67013313057994,11.285742631045444
0.05218406135378459,16.64397191634276,12.27884048787409
0.052350783594531505,16.617814044576967,13.24521458187158
0.05251750583527842,16.591650240429704,14.157537499716485
0.05268422807602534,16.56553001175733,15.018896883849065
0.052850950316772255,16.54445520769847,15.828998288088522
0.05301767255751917,16.54003724381992,16.57869143095487
0.05318439479826609,16.553615321604862,17.260123844131517
0.053351117039013005,16.57972520933899,17.888524414896306
0.053517839279759914,16.625345296058388,18.41245347308336
0.05368456152050683,16.673900961553883,18.92066334997138
0.05385128376125375,16.722895803686054,19.425517881358864
0.054018006002000664,16.791075970408293,19.783794960385208
0.05418472824274758,16.859256137130537,20.142072039411552
0.0543514504834945,16.92859507625861,20.48389435420715
0.054518172724241414,17.00914629478861,20.666500404342536
0.05468489496498832,17.08969751331861,20.849106454477912
0.05485161720573524,17.17114063425297,20.921187018099815
0.055018339446482156,17.253103635369627,20.928843481286023
0.05518506168722907,17.335066636486278,20.93649994447223
0.05535178392797599,17.408553151993754,20.790550261973834
0.055518506168722906,17.480853264358625,20.62310124326873
0.05568522840946982,17.547111794316613,20.40124634067908
0.05585195065021674,17.59952393169574,20.05470138569408
0.05601867289096365,17.651936069074864,19.7081564307091
0.056185395131710565,17.694601065781594,19.301596956450684
0.05635211737245748,17.721025660646546,18.795043038478028
0.0565188396132044,17.747450255511502,18.288489120505368
0.056685561853951315,17.763005005407198,17.72756036791423
0.05685228409469823,17.76507734141426,17.099187780795067
0.05701900633544515,17.757554506184,16.428045086234835
0.05718572857619206,17.731869721478233,15.656847407286126
0.057352450816938974,17.705696822033733,14.833681233010482
