time,V(n001),I(R2)
0.0,-6.531715e-24,-1.718872e-25
0.00016672224074691563,6.2661417164953755e-06,1.648984483542253e-07
0.00033344448149383126,0.006869113024149725,0.00018076612072792935
0.0005001667222407468,0.04196214031369212,0.0011042671247224237
0.0006668889629876625,0.11168729842115242,0.002939140114381577
0.0008336112037345782,0.20081786482078323,0.00528468128188546
0.0010003334444814937,0.3340014107881876,0.008789509164332888
0.0011670556852284093,0.4671849567555922,0.012294337046780323
0.001333777925975325,0.6103004221069482,0.016060532339369767
0.0015005001667222407,0.7991834535174185,0.02103114238271755
0.0016672224074691564,0.9880664849278886,0.026001752426065335
0.0018339446482160719,1.190751335782461,0.031335567436855866
0.0020006668889629873,1.4349297525880633,0.037761315966365706
0.002167389129709903,1.6791081693936656,0.04418706449587556
0.0023341113704568187,1.9375751376637056,0.05098882690327092
0.0025008336112037344,2.2262813357297278,0.058586357173360956
0.00266755585195065,2.51498753379575,0.06618388744345098
0.0028342780926975657,2.8165815036193327,0.07412057087050629
0.0030010003334444814,3.138149599651343,0.08258289116393744
0.003167722574191397,3.459717695683354,0.09104521145736857
0.003334444814938313,3.79088017958527,0.09976001980658968
0.003501167055685228,4.133149533369863,0.10876711902632957
0.0036678892964321437,4.475418887154459,0.11777421824606948
0.0038346115371790594,4.822152969775457,0.1268987987017259
0.004001333777925975,5.172771389248614,0.13612558843163586
0.00416805601867289,5.523389808721771,0.1453523781615458
0.004334778259419806,5.872056643000154,0.15452780711896685
0.004501500500166722,6.219454874410625,0.16366984966648268
0.004668222740913637,6.566853105821094,0.17281189221399854
0.004834944981660553,6.905294806060905,0.18171824893181437
0.005001667222407469,7.239469864869905,0.1905123314994607
0.005168389463154384,7.570425222007408,0.1992216857182076
0.0053351117039013,7.881273543130936,0.20740191142240694
0.005501833944648216,8.192121864254464,0.2155821371266063
0.0056685561853951315,8.477235009193318,0.2230851188741821
0.005835278426142047,8.755545848806523,0.23040909193186798
0.006002000666888963,9.033856688419727,0.2377330649895539
0.0061687229076358785,9.27570276325223,0.2440974234790397
0.006335445148382794,9.51172230043129,0.2503084495543982
0.00650216738912971,9.747741837610349,0.25651947562975663
0.006668889629876626,9.935089998398462,0.26144971291815206
0.00683561187062354,10.118971921706231,0.26628873605919906
0.007002334111370456,10.302570858433267,0.27112031194310304
0.007169056352117372,10.427578074171846,0.2744099503559073
0.0073357785928642874,10.552585289910425,0.2776995887687116
0.007502500833611203,10.673522064702368,0.280882113733268
0.007669223074358119,10.745038170070824,0.28276413627411495
0.007835945315105034,10.81655427543928,0.2846461588149619
0.00800266755585195,10.882023619205269,0.28636905712080346
0.008169389796598866,10.91251266418681,0.28717142743988533
0.00833611203734578,10.911451350790474,0.28714333545824994
0.008502834278092697,10.903899827363404,0.2869447044611094
0.008669556518839612,10.896356109614588,0.28674613803680304
0.008836278759586529,10.888811462045927,0.28654770810291674
0.009003001000333443,10.881281456637995,0.28634940770974854
0.00916972324108036,10.873751451230063,0.2861512889678286
0.009336445481827275,10.866226840760525,0.28595325043499015
0.009503167722574191,10.858710021931628,0.2857554011819245
0.009669889963321106,10.851196991557758,0.28555771531605956
0.009836612204068023,10.843687426768913,0.285360158181545
0.010003334444814937,10.836183481075059,0.28516270824328116
0.010170056685561854,10.828681170326265,0.2849654053427675
0.010336778926308769,10.821187028937503,0.2847681985283556
0.010503501167055685,10.81370125260368,0.28457124266559203
0.0106702234078026,10.806225792672272,0.2843744553772025
0.010836945648549515,10.798750559860988,0.2841776718000519
0.011003667889296432,10.79127830991931,0.28398099580971936
0.011170390130043346,10.783810860769593,0.2837844929754413
0.011337112370790263,10.776343411619877,0.28358799014116315
0.011503834611537178,10.768879151823251,0.2833915911083701
0.011670556852284094,10.7614405670255,0.2831957882339508
0.01183727909303101,10.759637657580798,0.28314831928524953
0.012004001333777926,10.780667710292704,0.283701755302149
0.01217072357452484,10.827862023424714,0.2849437774153697
0.012337445815271757,10.895027517994741,0.2867112820524932
0.012504168056018672,10.9861036816204,0.2891080232005368
0.012670890296765588,11.077179845246057,0.29150476434858047
0.012837612537512503,11.194084724179604,0.2945812400998412
0.01300433477825942,11.321919122312314,0.2979453481358532
0.013171057019006335,11.449753520445025,0.3013094561718652
0.013337779259753251,11.603060356334376,0.305343791374994
0.013504501500500166,11.763806845163984,0.30957387767042577
0.01367122374124708,11.924553333993593,0.3138039639658576
0.013837945981993997,12.103409834680454,0.3185107404060642
0.014004668222740912,12.285582132112932,0.32330479495758135
0.014171390463487829,12.46775442954541,0.32809884950909857
0.014338112704234744,12.658247993392788,0.3331118106366677
0.01450483494498166,12.849499370518497,0.3381447074689452
0.014671557185728575,13.040750747644203,0.3431776043012226
0.014838279426475491,13.230954405514316,0.3481829333510901
0.015005001667222406,13.421145145879144,0.3531879225131746
0.015171723907969323,13.601755765312369,0.3579408712399013
0.015338446148716238,13.780841034736596,0.362653685944375
0.015505168389463154,13.941136813329464,0.36687202645787964
0.01567189063021007,14.10143259192233,0.3710903669713842
0.015838612870956986,14.258846767933484,0.37523286984270804
0.0160053351117039,14.389774677236582,0.3786783105896236
0.016172057352450815,14.520702586539684,0.38212375133653925
0.01633877959319773,14.644826818906996,0.38539015160690626
0.016505501833944648,14.735593714538874,0.38777874513808336
0.01667222407469156,14.826360610170749,0.39016733866926034
0.016838946315438478,14.907694196108366,0.3923076975898733
0.017005668556185394,14.959269787972321,0.39366498415206075
0.01717239079693231,15.010845379836276,0.3950222707142481
0.017339113037679224,15.052580158134111,0.3961205558957441
0.01750583527842614,15.068819716657824,0.39654789149973474
0.017672557519173057,15.061314133551265,0.39635035426211
0.017839279759919974,15.05089161859882,0.3960761431626352
0.018006002000666887,15.040480700908489,0.39580208197592204
0.018172724241413803,15.030071123125554,0.3955281669828009
0.01833944648216072,15.019670628415676,0.39525455797273673
0.018506168722907636,15.009282654014433,0.3949812196369878
0.01867289096365455,14.998897775056992,0.394707943210115
0.018839613204401466,14.988524854623961,0.3944349415128461
0.019006335445148383,14.978158519178812,0.3941620910960405
0.019173057685895296,14.967792183733664,0.39388924067923486
0.019339779926642212,14.957453562513175,0.3936171646304712
0.01950650216738913,14.947125924411585,0.3933453954629709
0.019673224408136045,14.936798286309996,0.39307362629547066
0.01983994664888296,14.926470648208406,0.3928018571279704
0.020006668889629875,14.916143010106817,0.3925300879604701
0.02017339113037679,14.905815372005227,0.39225831879296985
0.020340113371123708,14.895487733903638,0.3919865496254695
0.02050683561187062,14.885160095802048,0.39171478045796926
0.020673557852617538,14.87483245770046,0.391443011290469
0.020840280093364454,14.864545044070464,0.3911722689055331
0.02100700233411137,14.854260655941086,0.3909016037504814
0.021173724574858284,14.843976290607507,0.3906309391881205
0.0213404468156052,14.833708974835584,0.39036071791436255
0.021507169056352117,14.82344165906366,0.39009049664060463
0.02167389129709903,14.813175122158876,0.3898203062299409
0.021840613537845947,14.802918530993583,0.38955050992538176
0.022007335778592863,14.792676100096147,0.38928087362952557
0.02217405801933978,14.782436650185808,0.3890114242172921
0.022340780260086693,14.772232750703104,0.38874285690950466
0.02250750250083361,14.767324575909036,0.38861378530915347
0.022674224741580526,14.781537057753146,0.3889878926172565
0.022840946982327442,14.814875914050342,0.3898651949455586
0.023007669223074356,14.864952436302522,0.39118296685685094
0.023174391463821272,14.93513491517742,0.3930298969506142
0.02334111370456819,15.012226852489858,0.39505867347612267
0.023507835945315105,15.089318789802295,0.3970874500016312
0.02367455818606202,15.186693762649487,0.3996499232034976
0.023841280426808935,15.288656710298703,0.40233311733487476
0.02400800266755585,15.390619657947921,0.4050163114662519
0.024174724908302764,15.508001261671765,0.4081052597048561
0.02434144714904968,15.627350698150593,0.4112459930159598
0.024508169389796598,15.74670013462942,0.4143867263270635
0.024674891630543514,15.871800064320224,0.417678869744425
0.024841613871290427,15.996653779496189,0.4209645365907111
0.025008336112037344,16.118591003193025,0.4241734489835401
0.02517505835278426,16.240528226889865,0.4273823613763691
0.025341780593531177,16.35377553064816,0.4303625795566221
0.02550850283427809,16.462511249790946,0.43322406553929316
0.025675225075025006,16.571246968933732,0.4360855515219642
0.025841947315771923,16.65705977327635,0.438343748098643
0.02600866955651884,16.742527409154977,0.44059286046943325
0.026175391797265753,16.826143173049353,0.442793238555321
0.02634211403801267,16.878807981318772,0.44417910424388385
0.026508836278759586,16.931472789588195,0.44556496993244665
0.026675558519506502,16.9802966210206,0.44684977335288123
0.026842280760253415,17.002893593344705,0.44744450599709595
0.027009003001000332,17.025490565668814,0.44803923864131073
0.02717572524174725,17.043711931975967,0.44851877023137515
0.02734244748249416,17.033681280211326,0.448254679098687
0.027509169723241078,17.02189505330113,0.4479445355763718
0.027675891963987995,17.010111516859112,0.4476345403319625
0.02784261420473491,16.998345204297795,0.4473249264288893
0.028009336445481824,16.986585554235496,0.44701546102693684
0.02817605868622874,16.974841276974693,0.4467063799450219
0.028342780926975657,16.963096999713894,0.4463972988631069
0.028509503167722574,16.95136327242904,0.44608850417280504
0.028676225408469487,16.939637977330676,0.4457799383842088
0.028842947649216404,16.92791268223231,0.44547137259561265
0.02900966988996332,16.916202374987776,0.44516317079775236
0.029176392130710237,16.904500981189845,0.4448551854693096
0.02934311437145715,16.892799587391913,0.4445472001408668
0.029509836612204066,16.88112084669023,0.4442398824826293
0.029676558852950983,16.869451890371458,0.44393285320620385
0.029843281093697896,16.857782934052686,0.44362582392977834
0.030010003334444812,16.846113977733914,0.4433187946533529
0.03017672557519173,16.83444502141514,0.4430117653769274
0.030343447815938646,16.822776065096367,0.4427047361005019
0.03051017005668556,16.811140129479586,0.4423984820927319
0.030676892297432475,16.799510439582953,0.44209237472360885
0.030843614538179392,16.787880749686323,0.44178626735448584
0.03101033677892631,16.776269748468863,0.44148072064573796
0.03117705901967322,16.76466054540117,0.4411752278814832
0.03134378126042014,16.75305134233348,0.44086973511722843
0.031510503501167055,16.74146564662613,0.4405648804098971
0.03167722574191397,16.729880344858874,0.44026003639522554
0.03184394798266089,16.718296165915504,0.43995521857977804
0.0320106702234078,16.706731350977194,0.43965085259111514
0.032177392464154714,16.69516653603888,0.43934648660245224
0.03234411470490163,16.68360258254013,0.43904216933313706
0.03251083694564855,16.67205059807208,0.4387382623972788
0.03267755918639546,16.660524541303705,0.43843487877628035
0.03284428142714238,16.65239099952543,0.4382207124875964
0.033011003667889297,16.659161122281883,0.4383989514880701
0.03317772590863621,16.684161208909583,0.43905685985685844
0.03334444814938312,16.722543566852977,0.4400669807102373
0.03351117039013004,16.77404972922239,0.44142241334327986
0.033677892630876956,16.829653408533776,0.44288566887953973
0.03384461487162387,16.901657783325373,0.44478049568847605
0.03401133711237079,16.973662158116973,0.4466753224974124
0.034178059353117705,17.049624063335887,0.44867430995159174
0.03434478159386462,17.136221889277866,0.450953230658494
0.03451150383461154,17.222819715219845,0.45323215136539635
0.03467822607535845,17.311440766372296,0.4555642631809904
0.034844948316105365,17.403946260237994,0.45799849798986175
0.03501167055685228,17.494710813853978,0.4603869870040866
0.0351783927975992,17.58376790325005,0.4627306098561425
0.035345115038346114,17.66738368863491,0.4649310323020572
0.03551183727909303,17.743852473307502,0.46694336501753575
0.03567855951983995,17.820321257980098,0.4689556977330143
0.03584528176058686,17.883279166239873,0.47061251811860333
0.036012004001333774,17.93741902619319,0.4720373087821578
0.03617872624208069,17.99155888614651,0.4734620994457124
0.03634544848282761,18.028814307859676,0.4744424813484199
0.03651217072357452,18.057990966745972,0.4752102252630581
0.03667889296432144,18.087167625632265,0.4759779691776963
0.036845615205068356,18.100284524414175,0.47632332715123066
0.03701233744581527,18.09378025174659,0.4761520901484382
0.03717905968656218,18.081273351119776,0.4758229491831326
0.0373457819273091,18.06876048853845,0.47549368748379184
0.037512504168056016,18.05625738685763,0.47516470671321104
0.03767922640880293,18.043764153359994,0.47483590542333476
0.03784594864954985,18.03127976208077,0.47450733281223023
0.038012670890296765,18.01880550261836,0.47417896415563004
0.03817939313104368,18.006333166921735,0.47385089059071733
0.03834611537179059,17.99387386189581,0.4735230477970423
0.03851283761253751,17.981428276387415,0.4731954431498383
0.038679559853284425,17.96898669712288,0.47286805437221346
0.03884628209403134,17.956559391402205,0.4725409736705905
0.03901300433477826,17.94413782202901,0.47221401678061625
0.039179726575525174,17.931726938831734,0.4718873992987376
0.03934644881627209,17.919322163906756,0.47156097582424605
0.03951317105701901,17.906917388981782,0.47123455234975453
0.03967989329776592,17.89453798222427,0.47090880535972884
0.03984661553851283,17.882169059249946,0.47058333793725465
0.04001333777925975,17.86980013627562,0.4702578705147805
0.04018006002000667,17.857431213301297,0.46993240309230633
0.04034678226075358,17.845062290326972,0.4696069356698322
0.0405135045015005,17.832693367352647,0.46928146824735806
0.040680226742247416,17.820357827094583,0.4689568426499026
0.040846948982994326,17.8080281705424,0.4686323654241607
0.04101367122374124,17.795698513990217,0.4683078881984188
0.04118039346448816,17.783390881253577,0.46798400876195595
0.041347115705235075,17.77108512600183,0.46766018028579726
0.04151383794598199,17.758779370750077,0.4673363518096385
0.04168056018672891,17.746500732889007,0.4670132012682468
0.041847282427475825,17.73422229340918,0.4666900556863862
0.04201400466822274,17.72194494701343,0.466366942897048
0.04218072690896965,17.70968357989106,0.4660443094859109
0.04234744914971657,17.697422212768686,0.4657216760747739
0.042514171390463484,17.685163380354236,0.4653990942322355
0.0426808936312104,17.67292186143434,0.46507689569839533
0.04284761587195732,17.660697542553393,0.4647551605856281
0.043014338112704234,17.65010085103188,0.4644763433512739
0.04318106035345115,17.65031231841441,0.46448183223514894
0.04334778259419806,17.667349336138066,0.46493022910135495
0.04351450483494498,17.69682846396171,0.4657059721344347
0.04368122707569189,17.73605775488059,0.46673842490321105
0.04384794931643881,17.78756469699441,0.4680939100058609
0.044014671557185726,17.84455564064229,0.46959368246334676
0.04418139379793264,17.901546584290173,0.4710934549208326
0.04434811603867956,17.968056473605873,0.47284367250517495
0.044514838279426476,18.037530725023014,0.47467188297533164
0.044681560520173386,18.10700497644015,0.47650009344548827
0.0448482827609203,18.17990543968823,0.4784185272771725
0.04501500500166722,18.253488730893324,0.48035494220187336
0.045181727242414135,18.32495311891902,0.48223560051024283
0.04534844948316105,18.39175510706962,0.4839935728726252
0.04551517172390797,18.45814773943532,0.4857407708497303
0.045681893964654885,18.5083472992886,0.4870617615799737
0.045848616205401795,18.55854685914188,0.4883827523102171
0.04601533844614871,18.606753610074776,0.4896513101836943
0.04618206068689563,18.636182939851366,0.49042581475188374
0.046348782927642544,18.66561226962796,0.49120031932007313
0.04651550516838946,18.69171520167749,0.4918872642250334
0.04668222740913638,18.701253913053222,0.4921381946474051
0.046848949649883294,18.69492935771762,0.4919717648558287
0.04701567189063021,18.682073254671582,0.49163341001164695
0.04718239413137712,18.66914670701664,0.4912932792004365
0.04734911637212404,18.656222339563115,0.49095331293517064
0.04751583861287095,18.643315708653226,0.49061363325732604
0.04768256085361787,18.630419485157272,0.4902742783757575
0.047849283094364786,18.617536322596752,0.48993521736523615
0.0480160053351117,18.604653494759464,0.4895961646417311
0.04818272757585862,18.591791180654763,0.48925761979344834
0.04834944981660553,18.57892886655006,0.48891907494516557
0.048516172057352445,18.566068341849483,0.4885805897436869
0.04868289429809936,18.553226514573723,0.48824272778970224
0.04884961653884628,18.540384687297966,0.48790486583571757
0.049016338779593195,18.527547734858633,0.4875671122114313
0.04918306102034011,18.51473663782629,0.4872299331517447
0.04934978326108703,18.501925540793945,0.4868927540920581
0.049516505501833945,18.489122686922716,0.4865558066259457
0.049683227742580854,18.47634744184102,0.48621963483534886
0.04984994998332777,18.463572196759326,0.485883463044752
0.05001667222407469,18.450796951677635,0.48554729125415513
0.050183394464821604,18.43802170659594,0.48521111946355827
0.05035011670556852,18.425246461514245,0.4848749476729614
0.05051683894631544,18.412485843189476,0.4845391510904769
0.050683561187062354,18.399749864529923,0.48420398656896974
0.05085028342780926,18.38701388587037,0.4838688220474626
0.05101700566855618,18.37429002966184,0.48353396058723097
0.051183727909303096,18.36158136677421,0.4831994789600219
0.05135045015005001,18.34887270388658,0.48286499733281285
0.05151717239079693,18.336176352044895,0.48253086744977364
0.051683894631543846,18.3234915904577,0.48219706871686263
0.05185061687229076,18.310806828870504,0.4818632699839517
0.05201733911303768,18.298134080095235,0.48152981161404523
0.05218406135378459,18.28546980533698,0.48119659334128767
0.052350783594531505,18.27280553057873,0.48086337506853005
0.05251750583527842,18.260155368294264,0.4805304347656975
0.05268422807602534,18.247516168387484,0.48019780364863157
0.052850950316772255,18.234889010902414,0.4798655018771386
0.05301767255751917,18.222288057121443,0.47953392926508237
0.05318439479826609,18.212969801065913,0.4792887329986469
0.053351117039013005,18.21535529187228,0.47935152154121013
0.053517839279759914,18.23210842994731,0.4797924104709573
0.05368456152050683,18.2632279852465,0.4806112579088404
0.05385128376125375,18.299303527281083,0.4815605365092856
0.054018006002000664,18.348471916744238,0.48285451877003915
0.05418472824274758,18.397640306207393,0.48414850103079277
0.0543514504834945,18.44928161304649,0.48550752312820655
0.054518172724241414,18.509297773581714,0.48708681102250795
0.05468489496498832,18.569313934116938,0.4886660989168092
0.05485161720573524,18.63120767950401,0.4902948688929462
0.055018339446482156,18.69397763215152,0.49194673053352816
0.05518506168722907,18.75674758479903,0.4935985921741102
0.05535178392797599,18.81199173551979,0.49505240066198075
0.055518506168722906,18.866361707442223,0.4964832037786328
0.05568522840946982,18.914599595804894,0.4977526296666647
0.05585195065021674,18.950622270029637,0.49870058938657136
0.05601867289096365,18.986644944254376,0.499648549106478
0.056185395131710565,19.014596736193358,0.500384123745957
0.05635211737245748,19.03071645609999,0.5008083376839363
0.0565188396132044,19.04683617600663,0.5012325516219156
